! created by kelvin at Sat Aug 03 00:18:38 EDT 2019
! generated using vna/J Version 3.3.2
# Hz S DB R 50.0
001000000 0.00000000 -20.64662936 -21.45519183 -118.18100190 -58.49015897 -89.76094943 0.00000000 158.84542246 
005635239 -0.76736836 -11.55160801 -13.60210167 -72.85832255 -80.97962211 -158.51249641 -0.24647869 158.02414823 
010270478 -1.17520200 -9.31990364 -9.52156662 -61.18088181 -62.64381891 141.10073374 -0.42536235 154.65751946 
014905717 -2.24989276 -13.56698216 -7.83461472 -63.96567869 -57.03565679 141.19434539 -0.39766439 149.07928456 
019540956 -4.71986476 -20.12494589 -6.46998416 -76.15678078 -54.66994218 141.10055981 -0.49147988 143.29112179 
024176195 -6.16279820 -23.09072029 -4.36001863 -78.46472393 -51.79940544 140.85978409 -0.59430833 137.02402832 
028811434 -6.39645504 -26.16022087 -2.59078019 -74.58622024 -50.13801405 136.33098705 -0.68692437 130.73610022 
033446673 -5.38973607 -31.93155647 -1.03865101 -74.60874511 -49.13551535 134.84781147 -0.75612181 124.01445856 
038081912 -4.49863561 -39.90976771 -0.38272728 -80.78134425 -48.59045499 130.60654071 -0.70631527 117.27617392 
042717151 -4.71830247 -44.89753446 0.56772972 -94.85231139 -47.96637675 122.72225217 -0.56695553 110.85742810 
047352390 -4.89748964 -46.38024690 1.78200062 -94.75495071 -47.21084843 117.80779030 -0.32502243 105.23278994 
051987629 -5.04506715 -48.56370566 0.12204134 -97.93445011 -45.89736103 113.22423748 -0.09172545 100.56481267 
056622868 -5.13716216 -48.67610698 -0.86578982 -126.25315755 -44.61787321 111.11698345 0.00000000 96.77379952 
061258107 -5.27040983 -48.54111325 2.33983744 -150.33328185 -42.96142396 109.42266167 0.00000000 93.46812135 
065893346 -5.42161676 -48.49873661 2.97626832 -140.00447301 -41.71490793 109.74784471 0.00000000 90.42546628 
070528585 -5.56038241 -47.47659710 2.52667901 -130.09785574 -41.01321967 111.37819459 0.00000000 87.21159242 
075163824 -5.38775452 -45.60040111 -0.07152341 -142.70988602 -40.70307911 112.42562937 -0.18753591 83.60692724 
079799063 -5.54797844 -45.81518443 -0.70864270 -166.33655054 -40.68705332 113.07756956 -0.39960224 79.53679240 
084434302 -5.45352260 -44.30347558 1.03334431 -179.83005575 -40.35700248 113.39430083 -0.56508457 75.11411792 
089069541 -5.30503721 -43.92834984 1.76356710 -174.90324058 -39.90117810 113.53103309 -0.65483571 70.55467696 
093704780 -5.17138678 -45.02870707 1.82281769 -164.95000226 -39.38476625 113.17426672 -0.66045959 66.03838296 
098340019 -5.05005302 -47.43417463 1.27762311 -164.54030215 -38.31177508 111.92045660 -0.59388236 61.81101673 
102975258 -4.97592818 -51.49220297 0.20172344 -174.08023583 -37.42921310 111.52891300 -0.51834783 57.96460689 
107610497 -4.90118166 -57.03213334 0.01101922 174.89025662 -36.76402799 111.47322707 -0.40325868 54.54285596 
112245736 -4.84779066 -62.87583092 0.49339101 168.42398447 -36.47762547 110.84142709 -0.32682686 51.60672902 
116880975 -4.71081681 -68.46955366 1.03626932 166.26235753 -36.34221032 109.26918549 -0.24364814 49.00516175 
121516214 -4.48780102 -74.61362800 1.83791928 167.02840958 -35.91669306 106.83744310 -0.22320965 46.68242613 
126151453 -4.12154753 -81.67254574 2.44225804 173.67457234 -35.17546231 105.10622350 -0.23638828 44.55583993 
130786692 -3.69099563 -89.64374785 2.56136931 -176.23469269 -34.48884239 103.36172940 -0.31458422 42.48435063 
135421931 -3.23791713 -99.16438489 2.01131172 -170.75732223 -33.72722873 101.73941783 -0.44999599 40.35851598 
140057170 -2.96548711 -110.83693768 0.99593165 -170.71885792 -33.04854456 100.03979937 -0.64476541 38.02199727 
144692409 -2.98630700 -125.59810189 0.14920514 -175.94711991 -32.49536656 97.82831401 -0.94906114 35.51048791 
149327648 -3.44003931 -142.06515660 0.02502287 174.29429743 -32.30835856 96.30460191 -1.45559858 33.57199277 
153962887 -4.25272966 -152.82011601 0.68800557 166.37481769 -32.56637751 99.57667184 -1.91640026 36.73751850 
158598126 -3.25571510 -170.39600252 1.89337457 163.20197545 -31.37287002 103.12369361 -1.18747903 36.91342690 
163233365 -2.89793983 171.06729904 2.85695011 166.00647399 -30.50428021 99.24681337 -0.92659990 32.53530612 
167868604 -3.50199428 155.68639973 2.86167974 176.04408186 -30.08586603 95.11033325 -0.86051279 28.90140605 
172503843 -6.62035008 149.31092983 2.85506456 -174.03821675 -29.83412591 91.19243405 -0.85032369 26.04466133 
177139082 -13.26696988 157.30550468 2.41758800 -167.57068290 -29.62540158 87.04694597 -0.82239841 23.68830257 
181774321 -25.63223521 -160.81196492 1.05974451 -170.83620437 -29.51225107 82.77108069 -0.81511861 21.70274697 
186409560 -21.33449851 -64.32834359 0.17527614 -179.85902789 -29.35341972 78.49434138 -0.80434659 19.99358793 
191044799 -18.94134847 -105.65139052 0.33417226 167.89278244 -29.26018340 74.67287647 -0.81049427 18.55011523 
195680038 -16.25028045 -120.10761997 1.53005442 158.04201843 -29.24378913 71.47972390 -0.83921147 17.27956901 
200315277 -9.21586553 -155.97468881 3.24364603 153.84410023 -29.18141777 68.47600629 -0.88345398 16.07847193 
204950516 -7.17504470 -161.51201570 3.44044554 162.75428346 -29.14067712 66.28117540 -0.95539967 14.94860080 
209585755 -6.91543340 -165.17245319 3.57314811 172.16319721 -29.11152314 64.36490981 -1.03258356 13.78087074 
214220994 -7.86777140 -165.97499869 3.69472296 -178.17120422 -29.09367297 63.24963975 -1.13387555 12.53419427 
218856233 -10.13638958 -162.18735817 2.32857424 179.29928159 -29.12582309 62.55638140 -1.21605519 11.28679433 
223491472 -13.64182531 -149.61413145 0.98166901 163.98332828 -29.20331664 61.87215590 -1.31564289 10.02497423 
228126711 -16.59590528 -115.69620889 1.66529143 143.30565749 -29.34246861 61.97960601 -1.38095711 8.74512070 
232761950 -13.44636700 -84.25332432 3.85308986 131.61915172 -29.48967850 62.02584523 -1.45830359 7.49989330 
237397189 -12.90654081 -83.12784451 4.08469707 139.98891747 -29.61305974 62.33046241 -1.50411744 6.33941959 
242032428 -13.38180808 -81.70107720 4.08906092 149.64629669 -29.83803909 62.57334337 -1.55998183 5.23415858 
246667667 -13.80776591 -78.50352633 4.08363594 159.24204105 -30.02908387 62.95099638 -1.60047139 4.27778904 
251302906 -14.08067156 -73.67878829 2.80301536 158.95979646 -30.20069685 63.01804669 -1.64303217 3.36772972 
255938145 -14.09466639 -68.38780419 1.20575991 145.12764797 -30.39739693 63.07820281 -1.68672595 2.50245935 
260573384 -13.85081712 -62.67173820 1.26338431 127.87468071 -30.55175038 62.91739725 -1.73089052 1.71999780 
265208623 -13.34412720 -57.73418226 2.61470269 117.21968233 -30.69197621 62.50530330 -1.80055026 1.07590721 
269843862 -12.75177706 -54.56993656 3.92708969 115.81828580 -30.67956902 62.45142368 -1.83330779 0.39717175 
274479101 -12.34889431 -53.48575065 3.89498952 124.92715248 -30.65590734 62.09869052 -1.89446773 -0.28234851 
279114340 -12.12500917 -54.52600014 3.89742642 133.99191524 -30.57563750 61.93768244 -1.93336272 -0.96295753 
283749579 -12.10010192 -56.99010540 3.89184157 143.08279673 -30.44235260 61.85458050 -1.99709930 -1.64983926 
288384818 -11.94381379 -60.11048984 2.76821788 143.33872048 -30.27768760 62.23792992 -2.02744280 -2.37853741 
293020057 -11.68592497 -62.83239029 1.52566062 137.27017453 -30.06788091 62.36172181 -2.07676163 -3.10730372 
297655296 -11.21327271 -64.63768703 0.98810683 128.01713928 -29.81908922 62.95159633 -2.09893567 -3.82519381 
302290535 -10.69066161 -66.34210222 1.34601290 119.52504281 -29.60936524 63.86300759 -2.12282942 -4.59407700 
306925774 -10.14971100 -67.61849353 2.28855205 114.98260948 -29.34731065 64.76170018 -2.14018979 -5.28056942 
311561013 -9.60910164 -68.55457545 3.38892084 114.70426848 -29.11979202 65.71340788 -2.14965264 -5.97196462 
316196252 -9.15041696 -69.46114640 4.13172799 119.38901579 -28.99072724 67.23212171 -2.16251267 -6.55613463 
320831491 -8.83562859 -70.95022542 4.13026629 129.39410450 -28.79862772 68.33704216 -2.16273318 -7.12855989 
325466730 -8.74776590 -73.72811533 4.09033413 139.43897938 -28.70127508 69.45935680 -2.19084594 -7.65164881 
330101969 -8.81524184 -78.27087573 3.72789392 147.31870492 -28.60337104 70.23178481 -2.20079675 -8.16109092 
334737208 -8.96269446 -84.72002790 2.68906618 149.58024930 -28.60536710 70.61525833 -2.24380158 -8.68525220 
339372447 -9.06225665 -91.82701610 1.69554489 148.97664971 -28.53916778 70.48703125 -2.26583260 -9.20439180 
344007686 -9.10563792 -98.01197120 0.92916563 145.34012476 -28.50374902 70.05606160 -2.32567927 -9.75484018 
348642925 -9.14751932 -102.67734711 0.69874283 139.50103107 -28.38211451 69.08216085 -2.37238414 -10.42285024 
353278164 -9.28708066 -105.84169650 1.11377476 133.51971289 -28.22685827 67.90853471 -2.44028988 -11.11460375 
357913403 -9.52487939 -108.44610834 2.06190442 129.63676389 -28.06197157 66.24068089 -2.49336580 -11.88879912 
362548642 -9.84121787 -111.29813135 3.24276857 128.84044366 -27.83786932 64.47172443 -2.55434389 -12.76311080 
367183881 -10.22286473 -114.45256236 3.48227911 136.57639672 -27.57163683 63.05918799 -2.60320700 -13.69790125 
371819120 -10.73271676 -118.18546459 3.49404157 146.11603320 -27.28436842 61.69857891 -2.62686356 -14.63425290 
376454359 -11.41910446 -122.47540309 3.51899615 155.78106430 -26.99327116 60.49059223 -2.64719857 -15.52425223 
381089598 -12.17504522 -127.04008351 2.47993235 157.24978002 -26.67893900 59.56166358 -2.63886213 -16.29738814 
385724837 -13.03089971 -131.60225120 1.24777189 152.20663081 -26.44358354 58.93138913 -2.64763423 -16.95522644 
390360076 -13.95917993 -132.92417707 0.69314606 141.37437430 -26.23176258 58.73240740 -2.63001767 -17.39215195 
394995315 -14.79066652 -126.86220993 1.39304913 129.28329497 -26.11641104 58.51290327 -2.65781630 -17.71446699 
399630554 -15.13069997 -114.07994260 3.02271231 122.50837056 -26.07289569 58.58196304 -2.67621416 -17.90546992 
404265793 -14.76787954 -99.48573123 3.81626384 127.51669116 -26.09382069 58.50488234 -2.74500221 -18.01548107 
408901032 -13.80610989 -86.96543147 3.82261559 138.23150251 -26.19875264 58.32631068 -2.80970981 -18.18557215 
413536271 -12.73172398 -78.11162665 3.79731249 148.90365274 -26.37269090 58.04025708 -2.90727677 -18.42315961 
418171510 -11.80046927 -72.32159709 3.54470743 157.99761274 -26.55955989 57.23563476 -3.01086798 -18.75376384 
422806749 -11.00061674 -68.14729506 1.69835777 151.69939551 -26.74226560 56.32775841 -3.11878768 -19.17985926 
427441988 -10.29932665 -65.27002798 0.65991026 136.43970007 -26.93396778 55.31235894 -3.22460985 -19.69202567 
432077227 -9.60119542 -63.34119959 1.49830125 119.76225359 -27.03726204 53.81345815 -3.30364365 -20.34559617 
436712466 -8.98610258 -62.31884616 3.42136340 111.09222124 -27.10435557 52.67608904 -3.38890876 -21.06525624 
441347705 -8.46069087 -61.92023830 3.65560149 119.35098761 -27.12370974 51.47754962 -3.42419573 -21.82147167 
445982944 -8.00917401 -61.52591144 3.68726810 128.93471871 -27.11717233 50.62537008 -3.45828648 -22.51965651 
450618183 -7.53398533 -61.06118509 3.77279519 138.47756235 -27.08003564 50.02236519 -3.43099878 -23.14467434 
455253422 -7.14844285 -60.75995702 2.45192330 136.83195335 -27.03028809 49.89115725 -3.41543732 -23.66496966 
459888661 -6.77735991 -60.32913315 1.14191747 124.10586817 -26.95318741 50.01106075 -3.36103016 -23.95293228 
464523900 -6.44669072 -59.85100664 1.34475272 108.46276367 -26.89398686 50.59358271 -3.32105117 -24.08725091 
469159139 -6.15124140 -59.26535847 2.81237921 98.62320057 -26.87367230 51.47462855 -3.28239224 -23.99478513 
473794378 -5.92131260 -58.67724765 4.33026854 97.45379572 -26.86387866 52.60168852 -3.26114263 -23.88818996 
478429617 -5.75308753 -58.05706293 4.42120414 107.70948386 -26.88170357 53.76620876 -3.26678626 -23.61611634 
483064856 -5.63684482 -57.56146639 4.49022862 118.08579375 -26.92868988 55.12305778 -3.28342779 -23.37505844 
487700095 -5.58157665 -57.37357076 4.51818199 128.54529978 -27.04281069 56.33547190 -3.33425565 -23.26306328 
492335334 -5.54811890 -57.44762172 3.47519600 131.04385470 -27.14823281 57.55042655 -3.36944937 -23.19890229 
496970573 -5.57484806 -57.91007322 2.14323036 126.48616285 -27.32408317 58.64657265 -3.44252460 -23.28168148 
501605812 -5.55539362 -58.68896592 1.47057506 118.45164009 -27.41048667 59.55276348 -3.48368315 -23.55432950 
506241051 -5.56180740 -59.59609883 1.66983530 110.42294700 -27.54049836 60.13134059 -3.54469993 -23.91546303 
510876290 -5.50975700 -60.64331908 2.55734244 105.48382751 -27.54255883 60.54057823 -3.56517451 -24.42916905 
515511529 -5.43500135 -61.72258203 3.66995356 104.56054505 -27.57413644 60.86748279 -3.58496624 -25.07360519 
520146768 -5.29712141 -62.64661404 4.33780980 109.59904257 -27.50180145 60.97304110 -3.56573715 -25.78123494 
524782007 -5.14258990 -63.35598420 4.37022828 119.32737776 -27.36545268 61.08163240 -3.54624464 -26.50489557 
529417246 -4.94015429 -63.88169026 4.42645723 128.95539519 -27.18393556 61.16706271 -3.49123577 -27.21295715 
534052485 -4.72972921 -64.00777450 3.46868627 130.55730675 -26.91820883 61.44135554 -3.41982116 -27.84248892 
538687724 -4.55731556 -64.08245371 2.56276276 129.01222915 -26.59772646 61.87923846 -3.34772457 -28.43061135 
543322963 -4.42834412 -63.97378198 2.00049555 124.03605651 -26.26919885 62.54217134 -3.24969597 -28.83335638 
547958202 -4.37927645 -63.94688835 2.08793448 117.08252135 -25.90758558 63.22339274 -3.18932007 -29.20342281 
552593441 -4.31018292 -63.78738846 2.92663570 111.11735715 -25.53954747 63.94457947 -3.11051249 -29.44677515 
557228680 -4.25671168 -63.54044076 4.18246199 108.54980265 -25.20454850 64.68990847 -3.09408854 -29.59779575 
561863919 -4.11157010 -63.14584003 5.53079191 109.68712715 -24.87569728 65.44783447 -3.06097288 -29.74526856 
566499158 -3.98365026 -62.94298757 5.79052888 119.28302545 -24.64103956 66.13716731 -3.09017601 -29.90367327 
571134397 -3.88205274 -63.06422173 5.94113443 129.45062778 -24.42032326 66.44178883 -3.14271501 -30.11219573 
575769636 -3.85665528 -63.69515714 5.95129946 138.82000608 -24.30043343 66.45083761 -3.24048913 -30.42354322 
580404875 -3.86107159 -64.92072914 4.99315344 140.47750183 -24.15297888 66.19454528 -3.34795552 -30.97711770 
585040114 -3.90234544 -66.62046362 4.04359906 138.65144246 -24.10236575 65.21767533 -3.47572164 -31.64368284 
589675353 -3.93905102 -68.71822921 3.40319623 132.95311195 -24.02458496 63.79751176 -3.60774596 -32.46057673 
594310592 -3.98683876 -71.19807633 3.43866403 124.82818636 -23.97447898 62.13344415 -3.74393234 -33.42800720 
598945831 -4.00476167 -73.75445136 4.22815888 117.50592770 -23.89115617 60.15073613 -3.86514352 -34.51148452 
603581070 -4.01684436 -76.26259313 5.50161696 113.36077893 -23.82593714 58.07761318 -3.96174748 -35.60472563 
608216309 -4.04969822 -78.55837840 6.56101284 114.75355471 -23.77440810 56.02836881 -4.05382014 -36.62440917 
612851548 -4.05920834 -80.49949907 6.65517985 123.47642254 -23.63463711 54.17359129 -4.09080706 -37.60527961 
617486787 -4.11573330 -82.02059710 6.73833497 132.18104577 -23.55146724 52.38690417 -4.13827315 -38.26928562 
622122026 -4.18869359 -83.13743858 6.59794555 139.22766394 -23.44921586 50.93057057 -4.15084885 -38.76036350 
626757265 -4.34714260 -83.93562741 5.23074549 135.22148362 -23.37415848 49.85755008 -4.19330921 -38.92984228 
631392504 -4.53690167 -84.43530404 4.19449081 124.31865749 -23.29799157 49.16143266 -4.22825592 -38.83073051 
636027743 -4.74686169 -84.52078313 4.36907966 108.99670549 -23.26289206 48.56706238 -4.29316764 -38.53191743 
640662982 -4.93919716 -84.23285223 5.84743420 97.34026123 -23.22751811 48.43374245 -4.37560123 -38.04470430 
645298221 -5.10045828 -83.68560442 7.31685264 95.37527077 -23.24023889 48.38943245 -4.48096731 -37.53856325 
649933460 -5.26870985 -83.01541608 7.38010884 104.62120941 -23.26923751 48.77176325 -4.62037947 -36.95273844 
654568699 -5.41039196 -82.50509470 7.42315883 113.99320460 -23.31019620 49.03368827 -4.77128981 -36.55892278 
659203938 -5.52208358 -81.83837078 7.42751475 123.44666596 -23.35183243 49.41503545 -4.94310946 -36.17322341 
663839177 -5.54590965 -81.18956440 5.92394779 120.83147734 -23.44287915 49.60753826 -5.08864555 -35.97823608 
668474416 -5.55054500 -80.80276120 4.58354589 110.57496766 -23.55391557 49.80119830 -5.26691050 -36.04780817 
673109655 -5.50240550 -80.53072399 4.43691320 96.95446740 -23.67247434 49.52233920 -5.41625083 -36.23342735 
677744894 -5.43340369 -80.54864155 5.44508363 86.77284547 -23.80486822 49.18743839 -5.58074729 -36.54884446 
682380133 -5.32073438 -80.74761522 6.85900059 82.92019708 -23.89513066 48.55205962 -5.70444292 -36.90823234 
687015372 -5.17869838 -81.11690651 6.98329449 90.67245710 -23.98734680 47.68990103 -5.80471766 -37.19204843 
691650611 -4.99879900 -81.51243454 6.87496096 99.95486374 -24.04676879 46.54423553 -5.85007750 -37.37669947 
696285850 -4.78110893 -81.79236513 6.77983287 109.16228582 -24.08089977 45.19618706 -5.84195905 -37.42292859 
700921089 -4.56214783 -81.91854972 5.93751375 112.71760405 -24.10329518 44.07538395 -5.80430664 -37.28763854 
705556328 -4.36821210 -81.81763430 4.55899444 108.05082753 -24.09934145 43.31912085 -5.72663812 -36.96193437 
710191567 -4.22591050 -81.41176540 3.72620531 99.23221324 -24.10950189 42.85287256 -5.63464283 -36.42832595 
714826806 -4.14365681 -80.80287526 3.85202268 89.24839427 -24.05731723 42.60516191 -5.53449761 -35.68288744 
719462045 -4.15876298 -80.01210696 4.77580322 82.23764663 -24.02646898 42.68462430 -5.46024879 -34.77531174 
724097284 -4.24371959 -79.28295081 6.06111654 79.73943507 -23.97728552 43.19735572 -5.39184448 -33.79122550 
728732523 -4.41375069 -78.68338798 6.85944155 83.96728487 -23.93441130 44.01076981 -5.37727882 -32.83567163 
733367762 -4.60749579 -78.38405818 6.94517494 93.66315085 -23.81574964 44.94534576 -5.36191590 -31.96175272 
738003001 -4.84211993 -78.46978105 7.00485702 103.53004792 -23.78308496 46.09741187 -5.38019099 -31.29739745 
742638240 -5.06648676 -78.95384800 6.49641180 109.58371334 -23.73478743 47.21798522 -5.39771240 -30.84524176 
747273479 -5.29382225 -79.67911810 5.27450936 108.28623039 -23.69665295 47.86963952 -5.44251673 -30.63321654 
751908718 -5.48210937 -80.83975221 4.30730609 102.87550269 -23.73200592 48.73271086 -5.47543718 -30.75308549 
756543957 -5.60959628 -82.11382361 4.02178116 94.60572886 -23.80517416 48.97433774 -5.50063543 -31.13536585 
761179196 -5.67042062 -83.31595580 4.57589089 87.06915126 -23.87410546 49.11015376 -5.53265401 -31.71079377 
765814435 -5.61274244 -84.33774050 5.65559038 83.19381706 -23.95213690 48.85987611 -5.51139908 -32.39423401 
770449674 -5.51294719 -85.06084565 6.72980632 83.90171977 -24.00866491 48.63965395 -5.48245512 -33.13869730 
775084913 -5.32986030 -85.39265644 6.63151596 93.64838023 -24.04012510 47.59029519 -5.39040094 -33.94166812 
779720152 -5.14129224 -85.19722055 6.52080256 103.25977198 -24.04732471 46.60572246 -5.29583407 -34.71538154 
784355391 -4.92918109 -84.44539485 5.84081771 108.40858689 -23.97640185 45.65386341 -5.16011330 -35.31856173 
788990630 -4.74962815 -83.26986304 4.48248903 105.45469618 -23.91519592 44.54451438 -5.02255722 -35.69833356 
793625869 -4.60407134 -81.91980611 3.54133836 97.86858837 -23.77441396 43.54901591 -4.89801867 -35.93284292 
798261108 -4.51412789 -80.56495114 3.48811717 87.67559316 -23.64345946 42.49555845 -4.81246388 -36.01664111 
802896347 -4.50143824 -79.30569163 4.42104866 79.35441729 -23.54787291 42.07231909 -4.77299596 -35.80076880 
807531586 -4.53708192 -78.26289153 5.86830288 75.58167542 -23.45861292 41.54211544 -4.77287933 -35.66897063 
812166825 -4.63178188 -77.63315323 6.64355509 80.72054423 -23.47754574 41.11320114 -4.83845976 -35.42283656 
816802064 -4.76584398 -77.84866809 6.76103625 90.76366488 -23.66730036 41.19820138 -4.98421370 -35.49217597 
821437303 -4.91990642 -78.92346039 6.84730329 100.83235043 -24.00270611 42.72535165 -5.22853220 -35.62916710 
826072542 -5.11347788 -80.55263240 5.75613614 102.01846367 -24.20336963 46.30883103 -5.57616019 -35.07145027 
830707781 -5.31778349 -82.43232979 4.63120564 98.79921246 -24.04292559 50.14881430 -5.82437828 -33.03579320 
