! created by kelvin at Fri Aug 30 08:42:55 EDT 2019
! generated using vna/J Version 3.3.2
# Hz S DB R 50.0
001000000 0.00000000 141.90112631 -14.49571458 89.69736146 -32.35806666 -128.51069689 0.00000000 107.25850403 
002999333 -1.29810689 -53.89151765 -22.44849889 -137.55652781 -41.66577483 -130.66956009 0.00000000 139.31500868 
004998666 -2.40868081 -21.62658706 -17.11611038 -91.97076128 -45.36974529 -76.83946947 0.00000000 144.39769081 
006997999 -1.85306791 -11.32321509 -12.93188955 -72.72871355 -45.58329850 -72.87520620 0.00000000 147.40495301 
008997332 -1.62880422 -7.67557182 -9.64735406 -62.16958421 -46.91593398 -59.95934483 0.00000000 148.73536255 
010996665 -1.53062407 -6.34176752 -6.84011164 -56.39008034 -46.85043137 -43.89895244 0.00000000 148.42669968 
012995998 -1.53465340 -5.11988247 -4.48959441 -53.03189489 -51.97194436 -29.26103287 -0.01563950 148.14809548 
014995331 -1.48117324 -5.36154489 -2.38946550 -51.13752021 -50.65164200 -27.93401892 -0.02857456 145.71898283 
016994664 -1.50802986 -6.10924920 -0.61108997 -51.00818226 -51.37065079 13.76287612 -0.04794168 144.61488113 
018993997 -1.49670050 -7.49373248 0.95872644 -51.41279583 -49.83402952 2.48118873 -0.19791970 142.52188361 
020993330 -1.57301005 -7.23978119 2.38339234 -52.21321437 -52.48062178 44.67972992 -0.15615727 139.45210215 
022992663 -1.64772277 -7.58113664 3.71615557 -53.81250157 -49.33913661 70.07437910 -0.23513247 136.73004128 
024991996 -1.63367160 -8.83366733 4.91304543 -55.98148169 -48.52557402 101.33624074 -0.32091571 133.87858829 
026991329 -1.64907059 -10.16985681 6.00271467 -58.25304034 -46.90853508 74.38483813 -0.35924928 131.01750651 
028990662 -1.82406251 -10.50122977 7.02634011 -60.41540463 -49.77787805 115.29641079 -0.39850061 128.18122436 
030989995 -1.81318566 -11.19177507 8.04938338 -63.23180167 -45.61912536 107.53938361 -0.39514715 125.73973472 
032989328 -1.84125102 -11.51981292 8.97398217 -65.67633503 -46.92817707 105.88008265 -0.18790502 123.84193068 
034988661 -1.83414904 -12.58702342 9.86601609 -68.41741207 -48.90678003 102.60785482 -0.22455397 120.45153702 
036987994 -1.88372562 -13.48335051 10.73310427 -71.33425914 -46.42173518 120.48895982 -0.10482486 119.03419983 
038987327 -1.86790629 -14.15063371 11.55816718 -74.21120060 -45.89981000 120.04775798 0.00000000 116.10227513 
040986660 -1.88832477 -14.54977285 12.36617770 -77.13602382 -45.80561355 130.65883227 0.00000000 114.31722663 
042985993 -1.78720533 -15.62978974 13.12063710 -79.99462891 -45.29419543 135.12128614 0.00000000 113.19504110 
044985326 -1.83767923 -16.90881668 13.79788743 -82.83218107 -46.41513725 126.95826553 0.00000000 111.54538849 
046984659 -1.81808741 -17.67261606 14.42713300 -85.67037972 -45.88953502 120.99776227 0.00000000 110.87629744 
048983992 -1.71839143 -17.95265202 15.00379330 -88.68517445 -45.04934841 119.63695329 0.00000000 110.18805729 
050983325 -1.62776027 -18.64510689 15.51171385 -91.48301862 -45.49711289 136.14627364 0.00000000 107.84520524 
052982658 -1.58650788 -19.20578516 15.94445063 -94.59141019 -46.73760819 129.16734228 0.00000000 106.95179751 
054981991 -1.55456641 -19.23960973 16.05268520 -97.21719434 -45.52347515 130.80522264 0.00000000 106.13512108 
056981324 -1.45834287 -19.35986572 16.13381108 -101.02451888 -45.06385879 144.87303356 -0.21229443 104.53301890 
058980657 -1.41316438 -20.14710784 16.45776523 -105.01715039 -44.95427979 133.58251996 -0.31607618 102.91686552 
060979990 -1.34792252 -20.18566635 17.01069891 -107.99209330 -43.70322162 133.72887613 -0.39766895 101.01686219 
062979323 -1.29614631 -20.61195784 17.26562633 -111.26618864 -45.46573873 123.27416168 -0.56887290 97.95737906 
064978656 -1.30810812 -21.48849503 17.36902452 -114.96712320 -44.17619878 118.41025679 -0.71057046 96.07491322 
066977989 -1.23702509 -21.39990502 17.45438017 -118.59875178 -43.54780691 109.57841042 -0.73173246 93.56360205 
068977322 -1.21583899 -22.41100353 16.89926948 -120.19673825 -42.76465187 102.52703010 -0.79085073 90.62362447 
070976655 -1.14409479 -22.60986468 16.32285041 -123.13136333 -43.07763803 111.14702568 -0.62264735 88.95613873 
072975988 -1.14077088 -22.79147629 15.91083002 -127.56935824 -42.52269718 106.69382702 -0.91788801 85.87425487 
074975321 -1.13275295 -23.17432579 15.79296340 -132.68892412 -42.85173692 108.81199789 -0.72037080 82.08256655 
076974654 -1.08399895 -23.38097503 15.98127778 -137.58059307 -41.66760409 110.77395530 -0.71743933 79.43905838 
078973987 -0.95016183 -24.33695756 16.38955448 -141.24757528 -41.83911213 109.62730942 -0.61679213 77.66219548 
080973320 -0.92752100 -24.72838895 16.92992507 -143.40889104 -40.84596469 108.52079424 -0.52229944 75.59210482 
082972653 -0.84611163 -25.36702305 17.48336524 -144.05054086 -39.75294573 107.20810467 -0.44829248 74.87355930 
084971986 -0.88458843 -25.86098581 17.49903003 -146.43060417 -39.88099305 108.54391429 -0.32280499 73.21231386 
086971319 -0.82548250 -25.68624376 17.44655640 -148.67836787 -39.46226750 103.56888550 -0.17904005 71.12778478 
088970652 -0.80663564 -26.77742018 17.30772486 -150.39513130 -39.60651673 94.56214808 -0.13277075 70.56756819 
090969985 -0.66546958 -25.34582346 16.83098375 -151.03947760 -40.04090121 100.32363987 -0.06273029 68.46644702 
092969318 -0.63824600 -26.22908265 16.44227893 -152.60657623 -38.84276686 105.05998103 -0.11735678 68.43899530 
094968651 -0.60512640 -25.75581514 16.17169132 -154.74047165 -38.78336411 108.91793793 -0.16727356 67.47865679 
096967984 -0.56504792 -25.92921634 16.04592897 -157.31631130 -38.68304487 107.32670085 -0.19947242 66.34469848 
098967317 -0.53414490 -26.13591656 16.09941841 -159.82090578 -37.47147338 105.67712119 -0.26934480 64.63885988 
100966650 -0.44784936 -25.38844994 16.31134651 -161.77224129 -37.95454518 102.02701055 -0.40088426 63.67555880 
102965983 -0.57193902 -25.24247892 16.64156969 -162.88480315 -37.60698824 110.80537564 -0.35620173 62.10896161 
104965316 -0.58410862 -25.37027299 17.02974379 -163.18849016 -37.63517514 109.34466929 -0.35483613 60.84684879 
106964649 -0.57689635 -25.31521133 17.14306123 -163.76420565 -36.54698239 112.77142125 -0.49964778 59.22550960 
108963982 -0.64097337 -24.63015470 17.10219602 -164.52956952 -37.04660683 107.88339398 -0.57139155 58.84852517 
110963315 -0.72761143 -25.65790417 17.08275317 -165.09306505 -37.41134924 110.20338450 -0.48354962 56.83824027 
112962648 -0.74870085 -25.60106813 17.06455784 -165.60832003 -37.11933884 112.06836533 -0.59960948 54.73649843 
114961981 -0.84168607 -25.73953800 17.03399131 -166.00837182 -36.77699384 108.52053383 -0.48080676 52.14555056 
116961314 -0.94203062 -25.57873001 17.00690012 -166.46140730 -35.98359448 106.22839296 -0.55511000 51.20886842 
118960647 -0.88418807 -26.12798684 16.98627066 -166.62004133 -36.22703233 111.11100575 -0.52150075 49.65487829 
120959980 -1.09809552 -26.18964577 16.94326111 -166.79608016 -35.98776823 109.21722341 -0.52360411 47.70091476 
122959313 -1.11246303 -27.21251348 16.83595346 -166.80856187 -35.81741202 108.34244486 -0.50839082 47.01237143 
124958646 -1.14620319 -27.68106352 16.71499192 -166.93518489 -35.53434820 108.08454549 -0.36674999 45.51425738 
126957979 -1.22757603 -28.07412413 16.66512170 -167.25243575 -35.30975725 105.33783912 -0.32247125 44.96723386 
128957312 -1.37274091 -28.98214323 16.70790743 -167.41493769 -35.43517467 108.92295560 -0.29476964 43.59046296 
130956645 -1.27547314 -30.64179634 16.78686032 -167.53830946 -35.75488495 104.83079068 -0.23638673 42.76930358 
132955978 -1.35339634 -30.81509522 16.87118948 -167.49929667 -35.63030106 105.52614337 -0.25903529 41.91140956 
134955311 -1.37817148 -31.42074159 16.92781491 -167.44787000 -35.54336175 107.72217578 -0.23919445 41.72825140 
136954644 -1.56475691 -31.94979781 16.95939801 -167.68143589 -35.01228136 105.71260083 -0.18956443 41.33053526 
138953977 -1.51261826 -33.23961706 16.97371830 -167.80919079 -34.69528258 102.40591766 -0.20221895 40.74288635 
140953310 -1.47853722 -33.32871974 16.99537232 -167.99022543 -34.79649110 99.96604266 -0.33946390 40.19184078 
142952643 -1.60068190 -34.40213886 17.03819945 -168.23576981 -34.09757281 101.31347870 -0.40067107 39.59230892 
144951976 -1.67708145 -34.53824746 17.08369362 -168.28089679 -34.42272446 101.16623029 -0.38004061 39.11806967 
146951309 -1.54328830 -35.44740815 17.12981029 -168.60981426 -33.48619497 96.84928995 -0.59920399 38.12668173 
148950642 -1.67009514 -33.74039033 17.20342477 -167.39335249 -33.45932687 97.28924012 -0.63416910 40.55404114 
150949975 -1.79308590 -33.51134325 17.26686310 -167.56573365 -33.63031006 93.51641692 -0.69522055 39.45390130 
152949308 -1.84041518 -33.88251568 17.19091429 -167.60671368 -32.55481270 92.10205248 -0.89176077 38.08694460 
154948641 -1.83065222 -35.35570599 17.00675373 -167.60893527 -32.25296359 89.75826699 -1.03581301 37.65752659 
156947974 -1.98543093 -35.09248845 16.90582027 -167.87816210 -32.38474074 90.13596220 -1.17139240 36.57334559 
158947307 -2.02189325 -36.13210263 16.87501143 -168.66669496 -31.95255791 89.66595858 -1.24904388 35.55370307 
160946640 -2.01976593 -37.15388051 16.96889449 -169.48539704 -31.74333848 90.34022471 -1.31220903 35.00493841 
162945973 -2.16210513 -36.98874902 17.13207702 -170.39061321 -31.25530708 88.25221127 -1.35750164 33.58945249 
164945306 -2.18276465 -37.30625326 17.39564339 -171.00818940 -30.71917040 84.10342871 -1.45108372 32.42753996 
166944639 -2.33206682 -37.71809015 17.76927608 -171.24784854 -30.47382157 86.05049095 -1.54321437 30.87898635 
168943972 -2.45419589 -39.22605774 18.19253461 -170.92975927 -30.33066621 87.01311001 -1.64199735 29.76498002 
170943305 -2.56123976 -39.48987327 18.49543947 -170.82029377 -30.03253793 83.62699078 -1.68668573 28.67761449 
172942638 -2.66550311 -40.55107247 18.66563779 -171.24032882 -29.88157020 84.88722704 -1.66413160 27.41343331 
174941971 -2.77145574 -40.71901365 18.82507636 -171.62199881 -29.68062376 83.37415907 -1.62125956 26.53711860 
176941304 -2.81648621 -42.08551203 18.97009539 -172.07885657 -29.63529795 82.71561164 -1.70135455 25.42637508 
178940637 -2.73894000 -43.48005582 19.11147357 -172.56694179 -29.29857173 81.50830268 -1.62989609 24.59442475 
180939970 -2.96395709 -43.86031889 18.89026920 -171.59858962 -29.37773342 82.70099833 -1.70627454 23.96885226 
182939303 -3.09930496 -45.05917804 18.53119967 -171.21336321 -29.14661062 80.72800556 -1.78069605 22.81508018 
184938636 -3.09205613 -45.61245610 18.20627891 -171.59296501 -29.04132160 79.67955933 -1.61489824 21.75784360 
186937969 -3.19462126 -45.46967503 17.96229939 -172.90927271 -29.13566134 81.02478072 -1.76120493 21.80564031 
188937302 -3.15403455 -47.18706188 17.82311939 -175.07261795 -28.98647458 80.03074727 -1.72663114 20.65745845 
190936635 -3.13879048 -47.84893854 17.80909318 -177.59300867 -29.26924540 75.75243715 -1.87136429 19.56419673 
192935968 -3.12976812 -48.92664328 17.99665597 -360.31739504 -29.41523395 76.46537301 -1.86785665 19.18563818 
194935301 -3.20139539 -49.64591160 18.33725702 177.36401855 -29.76261109 75.57260749 -2.03888643 19.23478125 
196934634 -3.16582920 -49.81960567 18.78798620 175.60728259 -29.95659125 76.21925303 -2.04647899 18.88712045 
198933967 -3.09804585 -49.72896746 19.30277963 174.81488618 -30.08970182 74.57891079 -1.93322590 18.05065037 
200933300 -3.09804887 -50.57915909 19.83737355 174.97115961 -30.08773524 75.04662602 -2.03193070 18.18608031 
202932633 -3.02269169 -50.76544348 20.38510570 175.78526161 -30.23340776 73.82754528 -2.03910853 17.53873298 
204931966 -3.00550261 -51.59278101 20.71621295 176.68950022 -30.23580139 72.33431446 -2.08450345 16.47624041 
206931299 -3.01726106 -51.06337693 20.25614418 178.54946823 -30.56416483 71.96621500 -2.08834123 16.58003922 
208930632 -2.84398788 -52.12068671 19.76584882 -360.61366405 -30.38279792 73.19310827 -1.87290403 15.30717820 
210929965 -2.95033990 -51.35916406 19.19917600 -360.99548527 -30.13662520 69.85461755 -1.82195553 15.30676952 
212929298 -2.84801319 -51.13310138 18.65593414 177.24586292 -30.38180735 69.28088443 -1.84213693 14.83385768 
214928631 -3.07942575 -50.99378261 18.20624309 174.07401498 -30.41228974 68.84727987 -1.71494378 13.82766649 
216927964 -3.05103798 -51.56804540 17.92025372 169.78869925 -30.33930713 67.32193968 -1.82991574 12.51283310 
218927297 -3.01740220 -52.01187954 17.88062842 164.69524934 -30.15269896 65.93077453 -1.68705934 12.52317597 
220926630 -3.03368269 -52.43669150 18.10742448 159.66213983 -30.15747804 64.05540309 -1.65172997 11.15983751 
222925963 -3.19940325 -52.27611376 18.54895275 155.51842866 -30.20621821 62.70548991 -1.63492431 11.03624894 
224925296 -3.17737728 -51.81195385 19.17526922 152.70858903 -30.48738669 64.26905516 -1.54226426 10.65596156 
226924629 -3.16345937 -52.26562698 19.83211135 151.24097552 -30.20729970 60.93680091 -1.41145011 9.92804678 
228923962 -3.28117329 -52.91821675 20.48937065 151.17690785 -30.29497847 61.04608223 -1.31843480 10.19575341 
230923295 -3.24668838 -53.66603697 21.01269130 152.54827597 -30.16244108 60.54685529 -1.35367795 9.27021997 
232922628 -3.26543484 -53.75479856 20.86029990 156.29508989 -30.30047820 59.41017413 -1.26065379 9.31414841 
234921961 -3.16393707 -54.23672229 20.28493551 156.45296192 -30.27695586 63.00082141 -1.25796674 8.14061500 
236921294 -3.31584531 -54.82680274 19.67426712 155.80032712 -30.37876356 62.47430376 -1.14384573 8.53503117 
238920627 -3.61539281 -55.46783812 19.09931719 153.81114781 -30.12638653 60.09872934 -1.17382195 8.75096352 
240919960 -3.41588994 -54.53024962 18.64100481 150.85610071 -29.99141271 58.84875881 -1.05043350 7.93820503 
242919293 -3.51788241 -55.83073630 18.38384421 147.19519614 -30.26331109 62.80569421 -1.08024124 8.58720165 
244918626 -3.36723949 -56.71366462 18.30594731 143.24858415 -29.70882354 60.06491286 -1.04966813 8.66774376 
246917959 -3.38452535 -56.92378230 18.45565179 139.76469180 -30.28083239 61.04080663 -1.11039193 8.62009245 
248917292 -3.46585871 -57.49136055 18.77350868 137.04575055 -30.01990272 61.56106158 -1.14312955 8.54709183 
250916625 -3.30132549 -58.11915656 19.19858317 135.49812380 -30.27699678 61.48848202 -1.09174556 7.83901185 
252915958 -3.19203735 -56.41363674 19.63829367 135.15783158 -30.23577961 59.23350281 -1.09889880 8.79041967 
254915291 -3.23531567 -58.23474616 20.12946762 135.78224444 -30.63545876 64.02813856 -1.13522326 8.69225414 
256914624 -3.33344698 -58.49169924 20.54806471 137.22622376 -30.57032341 60.92901637 -1.16387863 8.93002046 
258913957 -3.10065570 -58.14689150 20.58408981 137.37914648 -30.46907200 66.97682900 -1.19652562 8.22154011 
260913290 -3.15671975 -57.31838340 20.41729060 136.92230973 -30.16448977 61.72974472 -1.24412317 7.99367324 
262912623 -3.30776921 -58.08779328 20.22382850 136.86613117 -30.29724400 63.63759423 -1.31428520 8.11629493 
264911956 -2.91016519 -58.03631475 19.76432356 137.66434059 -30.37304751 63.11623127 -1.29894998 7.96697425 
266911289 -3.01214461 -58.99055774 19.35460290 137.89591369 -30.53102069 65.65837022 -1.33697731 6.26529303 
268910622 -3.13454089 -57.14921483 18.99773968 137.60587260 -30.85445639 66.15988288 -1.45900671 6.85397992 
270909955 -3.17944952 -58.27597955 18.70132088 136.93054487 -30.62109714 64.36056218 -1.54130400 5.61883368 
272909288 -3.38518695 -57.57171334 18.49452153 135.97531594 -30.76992764 64.19667714 -1.57321802 6.03683247 
274908621 -3.26436891 -58.49279308 18.37498643 135.06599258 -31.16184903 62.27263005 -1.64069425 4.61718543 
276907954 -3.27277726 -58.49428411 18.38712205 134.15640780 -30.74100001 63.43321408 -1.63090202 4.65911324 
278907287 -3.53248157 -57.99511376 18.47354099 133.64696526 -30.65055357 62.86645072 -1.67248347 4.05573771 
280906620 -3.60175349 -59.10415904 18.63807247 133.58664732 -31.03233233 62.32552631 -1.80512817 3.81486244 
282905953 -3.64287545 -59.76090600 18.77739556 133.66702911 -30.72266247 62.77693728 -1.87380295 3.17313113 
284905286 -3.79807510 -61.40478493 18.62473750 133.29690395 -30.45357693 61.58031067 -1.82674431 2.93784895 
286904619 -3.84480018 -61.63394526 18.49986553 133.08734533 -30.48811893 61.27926433 -1.83905266 1.91298777 
288903952 -3.86828952 -62.52830737 18.37186736 132.71075053 -30.47259962 58.81796143 -1.95690441 0.80197359 
290903285 -4.10277392 -64.35155635 18.25431342 132.39274881 -30.36162160 60.36377598 -1.96624444 0.92964314 
292902618 -4.05541319 -65.65458481 18.13589786 132.16058200 -30.71481338 58.51305369 -2.03443853 -0.32837937 
294901951 -4.13534190 -66.47265741 18.03738753 131.77184126 -30.31868508 59.14839904 -2.10661730 -0.70813711 
296901284 -4.29290705 -67.57806648 17.94920274 131.32620696 -29.64752050 61.96460540 -2.23781665 -1.16431163 
298900617 -3.91988623 -68.31297358 17.87969618 131.03398398 -29.67998347 60.43502728 -2.15004528 -1.96994235 
300899950 -3.92056187 -70.37941750 17.79058771 130.87683501 -29.80887138 60.29970172 -2.26026693 -2.72046834 
302899283 -3.72020009 -71.47465624 17.73397648 130.57895490 -29.66062868 59.81202334 -2.26200867 -3.40298818 
304898616 -3.72498824 -71.53987382 17.68709490 130.32206129 -29.13868217 62.64238758 -2.28236407 -3.99987194 
306897949 -3.68246059 -74.16389214 17.64036514 130.15584127 -29.12482697 62.26707102 -2.38000548 -4.93429739 
308897282 -3.44312186 -74.69971162 17.58733993 130.06703745 -28.88907882 60.21738704 -2.38824487 -6.59050060 
310896615 -3.37670439 -75.14901773 17.55704230 130.01860942 -28.78578763 61.08273757 -2.37468107 -6.53835119 
312895948 -3.20351960 -76.64943246 17.54882772 130.08896119 -28.66554043 61.50839260 -2.46800081 -8.14878849 
314895281 -3.47967367 -75.88566943 17.53976555 130.08300991 -28.33427738 62.69128186 -2.57928547 -8.28697717 
316894614 -3.14500343 -76.79585925 17.53747732 130.22887297 -28.48887940 64.86955870 -2.45149274 -9.22247720 
318893947 -3.14595112 -75.92630302 17.50481244 130.45977773 -28.11063446 63.59940413 -2.39943704 -9.78511249 
320893280 -3.04351707 -77.15442577 17.52287724 130.76841818 -28.30669657 66.23398037 -2.41676574 -10.48121128 
322892613 -3.10542096 -77.31482512 17.49995725 131.14687625 -28.18502839 66.40959221 -2.38436775 -10.63943621 
324891946 -2.97680471 -77.69620793 17.47192969 131.45373679 -27.89974337 66.50529490 -2.36560547 -12.23193132 
326891279 -2.92713726 -77.86764660 17.45530486 131.85063275 -28.06078676 66.44653795 -2.37796682 -12.73217074 
328890612 -3.06887176 -76.17478119 17.43160350 132.19779087 -27.88800708 67.12423247 -2.33306740 -12.08711484 
330889945 -3.05199649 -77.81488979 17.42302159 132.71608549 -28.01747916 70.71072392 -2.37150289 -13.05340523 
332889278 -2.93701162 -77.52276224 17.35903707 133.10525398 -27.91833877 67.31452381 -2.26771161 -13.41305560 
334888611 -2.89628511 -79.50194498 17.33889395 133.54251641 -28.14024585 68.94131036 -2.13296522 -13.93785507 
336887944 -3.16847104 -79.36993207 17.27649865 133.81119739 -27.58579632 68.49845577 -2.29660393 -13.97719260 
338887277 -3.16329419 -81.54809571 17.23422936 134.31132681 -28.39042378 68.86518989 -2.25378471 -14.53374711 
340886610 -2.94277358 -80.39089317 17.17166631 134.54543456 -27.66443959 67.56289658 -2.19169503 -14.35833020 
342885943 -3.13182845 -81.29624669 17.11921076 134.73998283 -27.86558185 65.98334500 -2.23429527 -14.46903009 
344885276 -3.05675409 -82.82795966 17.07842299 135.00217700 -28.06888087 68.36592813 -2.26819849 -14.40612052 
346884609 -2.90913533 -84.27727480 17.02869225 135.11739112 -28.06333217 66.96407489 -2.12383709 -15.35688804 
348883942 -2.92735238 -85.19510257 16.96483283 135.22613948 -28.08154465 67.73044894 -2.13209765 -15.42263337 
350883275 -2.71526015 -85.85291695 16.92117883 135.37087560 -28.37300880 65.10736696 -2.24422365 -15.86403106 
352882608 -2.85796827 -85.86347604 16.86260437 135.37167452 -28.39243956 66.15044404 -2.17161431 -15.33297762 
354881941 -2.65289840 -86.39066810 16.84153453 135.41785925 -28.37308131 65.45894459 -2.12905062 -15.58195511 
356881274 -2.40602217 -86.72712735 16.79008165 135.21747514 -27.80512042 62.95426528 -2.18387292 -15.27534724 
