! created by kelvin at Wed Sep 11 09:06:22 EDT 2019
! generated using vna/J Version 3.3.2
# Hz S DB R 50.0
001000000 0.00000000 -37.65528311 -17.40106366 151.08602444 -30.30625137 -113.27633348 0.00000000 -84.08069308 
003003339 0.00000000 -28.15816380 -24.94657650 -105.03071582 -44.62782043 -79.26836918 0.00000000 -102.56888694 
005006678 -0.27968796 -21.97575232 -18.85907763 -66.89356693 -46.20683307 -46.23158043 0.00000000 -116.18212831 
007010017 -0.73606479 -17.01956680 -14.20861250 -54.02465395 -50.96425023 -32.53742947 0.00000000 -127.44500872 
009013356 -0.91656785 -14.19599340 -10.57140598 -48.20000174 -48.27416288 0.89155001 -0.25276157 -138.40232080 
011016695 -0.92235676 -13.15710843 -7.58709635 -46.12276192 -52.00957883 -5.52433461 -0.48337523 -149.04860828 
013020034 -0.93455718 -12.91685142 -5.12709958 -45.53046807 -56.16783660 13.39335142 -0.63658532 -158.75687955 
015023373 -0.90966297 -12.77902222 -3.00145192 -45.94506288 -51.93947861 27.78374340 -0.67506569 -167.22924320 
017026712 -0.89951527 -13.39401845 -1.17542820 -47.56144530 -52.03923342 35.01110492 -0.72940649 -175.37316390 
019030051 -0.92133569 -14.02472518 0.36985922 -49.65988556 -53.53843452 57.80007177 -0.77588088 177.66764635 
021033390 -0.92684975 -14.54430484 1.75590559 -51.71946525 -50.58254530 87.93133900 -0.82087322 171.55206006 
023036729 -0.96682708 -15.19316979 3.03291095 -54.43610121 -47.98377615 94.15435131 -0.85188946 165.94821420 
025040068 -1.07026000 -16.16399215 4.13691851 -57.57259129 -48.62135588 112.68874947 -0.91837614 160.66579283 
027043407 -1.20944613 -17.28258981 5.16187897 -60.85928976 -52.02607570 119.35835769 -1.03031334 155.86647438 
029046746 -1.37381400 -18.20188495 6.07699010 -64.01215473 -44.32439848 126.42442016 -1.14417472 151.71724887 
031050085 -1.49824609 -19.34671522 6.95570300 -67.37911822 -45.27199843 113.47633045 -1.22647606 147.53800468 
033053424 -1.64507806 -20.75363358 7.76371755 -70.93880377 -49.00712496 118.69748820 -1.36373690 143.44415997 
035056763 -1.78283157 -22.09880941 8.52823733 -74.61145110 -46.22884050 113.02880015 -1.50444437 139.44048609 
037060102 -1.91143415 -23.39285088 9.26016137 -78.42634448 -45.53608895 113.69577809 -1.63490580 135.47008449 
039063441 -1.99666518 -24.69463342 9.95264965 -82.18446807 -44.35235096 121.72235066 -1.78058680 131.69714341 
041066780 -2.10123904 -26.03118460 10.62104199 -85.94820119 -42.99702283 127.39025541 -1.91286454 127.87140928 
043070119 -2.18054838 -27.29579784 11.26137168 -89.51536065 -44.11769531 132.39896634 -2.02588376 124.05299061 
045073458 -2.25963396 -28.56689675 11.86582973 -93.03324368 -44.52592578 146.74637318 -2.12238079 120.26051344 
047076797 -2.32095191 -29.84803029 12.46020981 -96.61662709 -45.68411791 131.06696751 -2.21963517 116.53526860 
049080136 -2.37740821 -31.11979792 12.96936999 -100.02427245 -45.32668052 133.95930717 -2.26752127 113.00643529 
051083475 -2.42798005 -32.46775656 13.47969408 -103.53754675 -44.23821118 134.12493320 -2.34045332 109.52878421 
053086814 -2.45347459 -33.38931587 13.93072162 -106.34014282 -50.90829213 127.76343192 -2.35358194 106.49859739 
055090153 -2.46554839 -34.66038954 14.34914324 -109.78494699 -46.15565864 109.01696613 -2.37738511 103.08403497 
057093492 -2.49401501 -35.70246473 14.71457213 -113.19517951 -46.84139266 112.50670888 -2.37712324 100.11573325 
059096831 -2.46880835 -36.60623885 15.03680869 -116.50298197 -48.76566110 110.91620741 -2.37348117 97.25854982 
061100170 -2.43866100 -37.34845045 15.30548796 -119.85068721 -53.68378204 108.26917649 -2.34587779 94.39187996 
063103509 -2.37377374 -37.72480554 15.57876031 -123.26137960 -48.33062303 119.35167095 -2.35802780 91.79391591 
065106848 -2.30147612 -38.00750121 15.79837004 -126.58488038 -47.65917228 96.34400885 -2.33606204 89.38991500 
067110187 -2.22837268 -38.18705527 15.97867547 -129.95320921 -49.95416262 102.00023940 -2.33125733 87.17699716 
069113526 -2.15887331 -38.34795341 16.13529600 -133.36365423 -47.59061529 105.53727342 -2.30967675 85.04351887 
071116865 -2.07062472 -38.55844605 16.27330375 -136.75565666 -46.50593576 85.14736509 -2.31958261 82.97283291 
073120204 -1.99909517 -38.85794488 16.37285733 -140.04895367 -46.37436262 70.31679484 -2.35083303 81.14987785 
075123543 -1.90980154 -39.15256394 16.45759552 -143.29314598 -45.22449295 84.10118901 -2.37851787 79.34119345 
077126882 -1.82598064 -39.40990785 16.52681925 -146.49850929 -44.41080334 67.43941261 -2.41680396 77.58614369 
079130221 -1.76890635 -39.85186016 16.42429402 -149.30492881 -43.23652665 75.33194223 -2.48716443 75.94393854 
081133560 -1.69211522 -40.24376846 16.12703017 -152.23881381 -42.44027027 76.88083400 -2.53804938 74.46612058 
083136899 -1.63361283 -40.56202910 15.98783457 -155.63436175 -41.13260171 70.20845960 -2.61519500 72.79334244 
085140238 -1.57062406 -40.94843638 16.03092787 -158.93438425 -43.70638173 59.91111085 -2.70717216 71.27474701 
087143577 -1.52084984 -41.16911676 16.24240781 -162.02366100 -42.68663403 76.06850723 -2.81521635 69.44349141 
089146916 -1.46646534 -41.63127343 16.56017891 -164.33842945 -40.56581883 73.43552259 -2.92897557 67.99767504 
091150255 -1.43385268 -41.96731558 16.63923826 -166.74221979 -40.60076919 77.73112513 -3.01899650 66.26676611 
093153594 -1.38870996 -42.35497722 16.59195112 -169.24938242 -38.85021603 65.82706185 -3.14649003 64.65158199 
095156933 -1.37111741 -42.67880293 16.57052016 -171.59973292 -40.55969929 75.47251361 -3.25626799 63.01470369 
097160272 -1.32639223 -43.02994772 16.54561131 -174.00839115 -40.15382642 76.60141164 -3.34436458 61.33893901 
099163611 -1.29843028 -43.27300547 16.49123930 -176.22457571 -39.91630393 75.34707811 -3.45325434 59.62168553 
101166950 -1.28646811 -43.61747915 16.45011448 -178.50704192 -39.34102245 73.48009201 -3.55816005 57.81261789 
103170289 -1.27514610 -44.00650104 16.40781869 179.37748135 -39.05887805 77.51342155 -3.65240544 56.12203074 
105173628 -1.27181587 -44.32155571 16.25795796 177.58472576 -38.62080123 80.41196712 -3.73505640 54.27261013 
107176967 -1.29637561 -44.83309749 16.09881034 175.69323154 -41.08299352 81.59527656 -3.82354609 52.46511479 
109180306 -1.30625530 -45.30946425 16.02993984 173.65380273 -39.96982610 82.66069492 -3.88650168 50.66684767 
111183645 -1.31744021 -45.78743849 16.06201715 171.66343560 -39.33633733 84.99562875 -3.94637040 48.98564253 
113186984 -1.33754553 -46.32714381 16.12107105 169.72138329 -37.89726948 73.30645390 -3.99406537 47.26398836 
115190323 -1.36595673 -46.75422646 16.12889405 168.00450092 -39.29079471 75.26661252 -4.04257180 45.56276869 
117193662 -1.37964591 -47.33954681 16.10561999 166.30558701 -38.85728542 82.66287630 -4.06527362 43.85759802 
119197001 -1.41559111 -47.98099588 16.06212393 164.66787338 -39.17030114 74.88034168 -4.11680205 42.03517456 
121200340 -1.45731360 -48.61404698 16.02554943 163.02891890 -38.51587559 79.77780530 -4.13034289 40.58191730 
123203679 -1.47965181 -49.46929973 15.98601526 161.67702120 -40.47987969 75.33670182 -4.15210775 39.02551912 
125207018 -1.50406766 -49.99115209 15.95720466 160.06616379 -38.20477864 80.58726200 -4.17044521 37.46904461 
127210357 -1.54841534 -50.85030937 15.93992781 158.63946108 -38.52735150 72.47839672 -4.16972391 36.11264188 
129213696 -1.58141495 -51.57458883 15.92309258 157.37070024 -38.27529038 71.75173110 -4.17180782 34.57963766 
131217035 -1.61729831 -52.33697146 15.91667217 156.08105937 -38.81344700 79.68566808 -4.18262512 33.35648749 
133220374 -1.63087412 -53.27452748 15.90853189 154.86609819 -38.12398011 76.09970673 -4.18919931 32.04125918 
135223713 -1.66580613 -54.06405875 15.89814838 153.77765795 -38.05502299 74.36371574 -4.19123816 30.80723787 
137227052 -1.69980473 -55.00324965 15.89773740 152.74142477 -36.71440959 76.83892472 -4.20541409 29.69562363 
139230391 -1.69905313 -55.76765622 15.89627927 151.78553789 -38.07005238 74.56128954 -4.20661123 28.58725326 
141233730 -1.71446231 -56.72455349 15.89113204 150.95043909 -38.50320884 67.35069762 -4.21291204 27.43692370 
143237069 -1.70767635 -57.53221019 15.90204393 150.04270242 -36.49805471 70.28855904 -4.22951879 26.37155895 
145240408 -1.72467118 -58.40968340 15.91252566 149.35776131 -37.30048143 75.14937575 -4.26599988 25.43095865 
147243747 -1.75737633 -59.34173141 15.90161441 148.58981029 -36.42930794 67.93185838 -4.24924083 24.54670489 
149247086 -1.73304981 -59.36839470 15.90672353 149.30911316 -37.72126407 67.43472525 -4.27670652 24.42094559 
151250425 -1.71584986 -60.19265903 15.89373293 148.61938950 -36.71642012 64.26637467 -4.29362161 23.70910752 
153253764 -1.73380066 -61.06583974 15.89208449 148.05160137 -35.23418620 64.48571830 -4.31190343 22.60884571 
155257103 -1.70025240 -61.78985336 15.89911336 147.62054926 -35.95912173 67.72764557 -4.35191610 21.84974100 
157260442 -1.70750004 -62.65982932 15.88368234 147.03616948 -35.38596504 63.91642266 -4.37229431 21.01336129 
159263781 -1.67554827 -63.50034314 15.86669266 146.45953962 -35.09669237 63.21043476 -4.38835131 20.18623311 
161267120 -1.65287032 -64.28651065 15.86356537 146.13918542 -35.56036250 65.58551285 -4.42227903 19.23173818 
163270459 -1.64532869 -65.14904530 15.84036103 145.61889452 -34.49119555 61.46298590 -4.45332922 18.35062019 
165273798 -1.61863262 -65.97186437 15.83287492 145.11541988 -34.85704344 60.00257364 -4.50621445 17.49980640 
167277137 -1.60820919 -66.59742890 15.80451743 144.53656018 -35.03710265 55.30298838 -4.53459762 16.64009467 
169280476 -1.58180979 -67.32607133 15.80127048 144.13958140 -34.97780239 58.68129027 -4.56229825 15.77819983 
171283815 -1.57736797 -68.02209506 15.79404156 143.52457619 -33.92081527 61.87819390 -4.58818503 14.94330773 
173287154 -1.56577577 -68.64694549 15.78519219 142.97621789 -33.78808259 62.42339113 -4.64171338 14.14507147 
175290493 -1.54003470 -69.18447403 15.76794180 142.35379437 -34.00632054 56.56974890 -4.68073641 13.17501751 
177293832 -1.52861688 -69.78380005 15.76471252 141.70740909 -33.70120125 60.45757677 -4.70297179 12.46281215 
179297171 -1.52511145 -70.33350539 15.76670713 141.11278907 -33.40263102 59.42692181 -4.73148383 11.44704663 
181300510 -1.52201712 -70.84126793 15.77820555 140.41817738 -33.86242532 59.14634830 -4.78168672 10.59357723 
183303849 -1.52957718 -71.34070813 15.76517964 139.62845031 -33.54141409 55.68206002 -4.81395679 9.54001741 
185307188 -1.55912200 -71.80788498 15.76874789 138.92995916 -32.62868190 53.52129722 -4.84896611 8.78873135 
187310527 -1.56139184 -72.17313038 15.80360068 138.21219405 -33.84134479 50.00069711 -4.86348047 7.80136107 
189313866 -1.57369787 -72.64484173 15.80741047 137.36184274 -32.31426695 52.40163888 -4.90663350 6.73679261 
191317205 -1.60092610 -73.10181331 15.83735784 136.54579438 -32.38297915 48.83972901 -4.97994608 5.74593920 
193320544 -1.65131053 -73.49170437 15.87119516 135.55331121 -32.27288530 47.73064424 -5.01775306 4.84040450 
195323883 -1.65726927 -73.79029587 15.89329426 134.50199179 -31.97616731 45.83712941 -5.07566609 3.70844309 
197327222 -1.71060118 -74.10341261 15.91711818 133.65159862 -32.43449457 44.91031162 -5.15874550 2.95660262 
199330561 -1.73615468 -74.12699923 15.94073207 132.63746693 -32.71416891 48.46605338 -5.24405746 2.08147312 
201333900 -1.74718153 -74.42123552 15.97163143 131.65753320 -32.29253604 46.93270388 -5.31914222 1.69955545 
203337239 -1.75055462 -74.69133012 15.97079943 130.87802357 -32.72312358 42.19793523 -5.38352497 1.33068674 
205340578 -1.78767914 -75.02210699 16.01225122 129.97971845 -31.71121771 44.81322121 -5.40598886 0.91273000 
207343917 -1.82513800 -75.27744833 16.03951616 129.23833309 -31.61388986 41.06390781 -5.43897580 0.58809025 
209347256 -1.86993306 -75.72047559 16.09743638 128.60483031 -32.31276797 41.50577870 -5.42924014 0.43129341 
211350595 -1.88281398 -76.14147547 16.17486801 127.75824724 -31.62328841 43.10139399 -5.42167451 -0.00106920 
213353934 -1.97830451 -76.94081981 16.24342545 126.87318498 -31.01089291 41.79301931 -5.41670134 -0.75927852 
215357273 -1.99912860 -77.19713234 16.33183487 126.36669602 -31.97974023 39.19536845 -5.41391876 -1.22386965 
217360612 -2.05740821 -77.60068057 16.37451859 125.51052936 -31.10684417 39.01641444 -5.38159917 -1.81740828 
219363951 -2.11374391 -78.15429939 16.48178032 124.95630443 -31.17793154 34.45806606 -5.38881444 -2.23865838 
221367290 -2.15101930 -78.86060570 16.57500690 124.17265266 -31.24939585 37.64465319 -5.38432298 -2.81295528 
223370629 -2.16628875 -79.29211116 16.65041184 123.53324183 -30.84805124 31.02481715 -5.39224460 -3.48898368 
225373968 -2.20900750 -79.82674838 16.75991786 122.88084716 -31.74801789 33.56256627 -5.38439082 -4.08947888 
227377307 -2.22410866 -80.21052616 16.84054510 122.22461551 -30.83330907 30.83001746 -5.39106258 -4.58255365 
229380646 -2.23747812 -80.86153734 16.91413176 121.55018631 -30.09771614 31.87271754 -5.41335773 -5.25642549 
231383985 -2.25463436 -81.35196426 17.00069899 121.04803075 -30.57604244 25.90570075 -5.41221305 -5.87817554 
233387324 -2.24818349 -81.73103242 17.08572286 120.38512492 -30.93903009 28.54166601 -5.41216325 -6.34212845 
235390663 -2.26016597 -82.29855055 17.17500468 119.87880803 -31.22499553 26.17242232 -5.44033307 -6.73905684 
237394002 -2.22724443 -82.91039654 17.23613739 119.25646863 -31.34161873 26.20673495 -5.42940628 -7.40135602 
239397341 -2.22632936 -83.49650656 17.31428253 118.58449208 -31.23268557 23.01880707 -5.44993220 -7.81970537 
241400680 -2.20212572 -83.90793878 17.34319428 118.08477771 -30.43220605 21.59118444 -5.46052819 -8.33144188 
243404019 -2.17132027 -84.58839001 17.39403928 117.36239700 -30.34773939 23.38233563 -5.48410680 -8.87934901 
245407358 -2.11540972 -85.19138305 17.44746800 116.80205051 -30.44566230 19.04451679 -5.49609860 -9.57091901 
247410697 -2.06894116 -85.58105995 17.49348218 116.22543357 -30.56670833 17.28051019 -5.50289931 -10.08226491 
249414036 -2.06474547 -86.29918936 17.52812276 115.56326781 -30.66601475 17.20063620 -5.56324955 -10.58879138 
251417375 -2.00193160 -86.74769308 17.54424224 114.95307368 -30.56520099 10.00950134 -5.53293906 -11.20440515 
253420714 -1.96822815 -87.31204018 17.57013664 114.08388956 -30.64733606 14.22288395 -5.59268794 -11.60153169 
255424053 -1.92506767 -87.62600461 17.60284669 113.20463794 -30.44301265 17.61223717 -5.60236470 -12.18862129 
257427392 -1.88525643 -88.24771817 17.61677044 112.44616825 -30.87259248 15.49596118 -5.61727360 -12.78694432 
259430731 -1.81334198 -88.75867931 17.62925320 111.77775572 -30.58346166 6.31215164 -5.63558552 -13.30330070 
261434070 -1.76736255 -89.33715236 17.63768311 110.72289913 -30.69880273 9.42343489 -5.66362884 -14.02203646 
263437409 -1.72167970 -89.59149229 17.64974459 109.77745081 -30.65762827 8.77714817 -5.67256972 -14.54122884 
265440748 -1.64895912 -90.02202780 17.65746871 108.77110207 -30.84325439 7.40649745 -5.68063151 -15.08712171 
267444087 -1.59290733 -90.34074765 17.66284839 107.65282508 -30.77334919 3.29188949 -5.70903893 -15.69878132 
269447426 -1.55342404 -90.76457935 17.67403250 106.51697661 -30.81959881 5.10116909 -5.72266316 -16.26566754 
271450765 -1.48119520 -90.99828414 17.68223560 105.48360092 -30.66751546 1.27116915 -5.68755804 -16.91707567 
273454104 -1.45461377 -91.21356840 17.67265730 104.02535673 -30.63305218 5.59451269 -5.71856128 -17.40762169 
275457443 -1.41781724 -91.50696464 17.68343175 102.77672436 -30.89587935 6.58993570 -5.72157078 -17.97707169 
277460782 -1.38010558 -91.75867771 17.71638409 101.51120341 -30.93747251 2.69241679 -5.71452820 -18.52291258 
279464121 -1.34297812 -91.94865716 17.70777125 100.21824204 -31.39557780 -3.78237175 -5.74888587 -19.06508238 
281467460 -1.32853287 -92.18408107 17.74930275 98.65278398 -31.33576396 1.76584204 -5.72292633 -19.64230892 
283470799 -1.30184270 -92.22424666 17.76325750 97.26190835 -31.20692638 -0.18788643 -5.71252604 -20.16308320 
285474138 -1.29621253 -92.40932930 17.80034743 95.82533731 -30.93047173 -0.17001493 -5.72804224 -20.59610034 
287477477 -1.27561311 -92.48122816 17.81603179 94.41341128 -30.84553921 -0.28085498 -5.70322171 -21.24227283 
289480816 -1.28612720 -92.63667641 17.86336108 92.93535450 -30.95687073 -1.38107168 -5.69004928 -21.59798901 
291484155 -1.29531551 -92.90511242 17.89379599 91.44051036 -31.16553187 -0.46736890 -5.69909722 -22.08435427 
293487494 -1.28008538 -92.96144690 17.93824002 89.99881623 -30.85858284 -0.77154431 -5.69025247 -22.58549075 
295490833 -1.30345907 -92.94005691 17.99556844 88.70751654 -31.42722811 -6.86015705 -5.68560532 -23.00541096 
297494172 -1.30717515 -93.07708060 18.03930939 87.26729308 -30.77090139 -1.92723764 -5.66931458 -23.19427586 
299497511 -1.31909833 -93.04170097 18.09172470 85.98136746 -31.88017793 -2.60813451 -5.63827828 -23.58113640 
301500850 -1.35673194 -93.35706883 18.13896053 84.70019287 -31.36088799 -6.13186215 -5.66122836 -24.05786723 
303504189 -1.38803492 -93.37814379 18.17108012 83.43995231 -30.97833787 0.45717785 -5.65397976 -24.27615678 
305507528 -1.40668198 -93.51265949 18.21958411 82.21215387 -31.24610872 -5.76979638 -5.63809232 -24.62467839 
307510867 -1.44322310 -93.72057990 18.26417836 81.14793177 -31.77550647 -3.92173901 -5.63526163 -24.95888026 
309514206 -1.49056047 -93.74811463 18.27934101 79.96984156 -32.03842340 -5.45144646 -5.64900597 -25.03361981 
311517545 -1.50935732 -94.13544634 18.33425018 79.00459599 -32.07971768 -6.04013679 -5.64181345 -25.36685042 
313520884 -1.56726026 -94.40399159 18.32965399 77.97035545 -31.03995900 -5.17021354 -5.66301864 -25.67323577 
315524223 -1.61382206 -94.75372483 18.34702296 76.92507185 -31.51117981 -3.71319924 -5.70212527 -25.93945555 
317527562 -1.64677643 -94.88258294 18.34241963 76.13185483 -31.50539110 -8.91514763 -5.68175426 -26.08147078 
319530901 -1.70476439 -95.27937271 18.34601374 75.21521813 -31.34996203 -6.29388985 -5.72090699 -26.41494929 
321534240 -1.73991385 -95.76288949 18.30230065 74.46442739 -31.33471428 -10.62732998 -5.75555097 -26.62147831 
323537579 -1.77829300 -96.11729907 18.27990560 73.56519681 -32.32746528 -5.81988859 -5.75445210 -26.82277779 
325540918 -1.81488957 -96.52146964 18.22946894 72.79505155 -30.99340082 -5.78946636 -5.78664055 -27.15806603 
327544257 -1.83165066 -96.99341640 18.18663945 71.97232149 -32.21329840 -6.55213464 -5.79301194 -27.42893071 
329547596 -1.85388721 -97.57617261 18.11659447 71.00047825 -31.64771306 -6.82620136 -5.80502868 -27.80656126 
331550935 -1.90455628 -98.11786602 18.04976359 70.28174696 -31.69894141 -9.55950760 -5.87296384 -28.02661674 
333554274 -1.93456967 -98.73178615 17.95407014 69.48065066 -31.32785639 -4.59538460 -5.88987242 -28.37295857 
335557613 -1.94573187 -99.37880408 17.87093529 68.51931933 -31.48068794 -7.46313572 -5.94206114 -28.70205095 
337560952 -1.95583241 -99.78920221 17.76821925 67.79658007 -31.12079815 -7.88425860 -5.97065686 -29.03535491 
339564291 -1.92727175 -100.47073728 17.66620442 66.81930657 -31.79493691 -8.10929902 -5.96665373 -29.35970440 
341567630 -1.94645735 -100.98322944 17.55476486 65.92715853 -31.64492385 -8.47241974 -6.02105745 -29.71740472 
343570969 -1.92505471 -101.74442340 17.43792326 64.70536580 -31.25926498 -7.49450568 -6.07546888 -30.22532155 
345574308 -1.90168263 -102.18231717 17.33457465 63.78439488 -31.48472938 -5.85333550 -6.08886624 -30.67570145 
347577647 -1.87826720 -102.79498386 17.22389669 62.67080063 -31.58887800 -4.37316773 -6.14103890 -31.02422299 
349580986 -1.89631878 -103.46145297 17.11097112 61.78596030 -31.60082473 -14.14166662 -6.18096345 -31.28295503 
351584325 -1.82666473 -103.96181259 17.01962088 60.61098916 -31.65449001 -6.12396229 -6.17983123 -31.93572221 
353587664 -1.77600562 -104.40374075 16.90913995 59.42506254 -31.15053133 -11.17947966 -6.21556324 -32.34818434 
355591003 -1.71281556 -104.84156165 16.82385726 58.28220357 -32.09852686 -7.47151929 -6.21769153 -32.89651301 
357594342 -1.67085314 -105.14441145 16.72376095 57.19070038 -31.38705132 -5.44610215 -6.22692322 -33.35259774 
359597681 -1.63317649 -105.64957380 16.63604490 56.08778634 -31.32000178 -6.30753818 -6.27267524 -33.80604648 
