! created by kelvin at Fri Aug 16 00:09:21 EDT 2019
! generated using vna/J Version 3.3.2
# Hz S DB R 50.0
001000000 -1.90428310 56.74249658 16.76526885 -126.78117564 -41.00883049 -14.54164231 -1.92936415 56.52096496 
001665999 0.00000000 80.04774194 18.43893859 -123.86591751 -42.69620560 62.63641694 0.00000000 80.55996655 
002331998 0.00000000 141.46599565 19.97537588 -125.90790879 -54.79067689 43.49738434 0.00000000 135.42528945 
002997997 0.00000000 160.78815825 21.08759816 -129.14344836 -48.93852011 125.23182216 0.00000000 147.27495143 
003663996 0.00000000 160.01544690 21.69754168 -132.44021891 -49.56366368 118.93084510 0.00000000 138.27612843 
004329995 -1.70257823 154.33682490 21.86416968 -136.07375141 -43.17768250 115.36500558 -2.05738730 123.22985516 
004995994 -5.76675186 149.93000069 22.06898895 -139.61513031 -50.91091972 103.75806217 -4.67388841 106.17109614 
005661993 -10.29608872 134.68875191 22.53859595 -141.47832391 -53.50133772 77.53114275 -5.44138140 83.06780407 
006327992 -14.78340490 117.89747679 22.70121636 -143.64370561 -52.82015283 101.15282117 -5.17048887 67.10633516 
006993991 -18.28862218 33.87956569 21.89049821 -142.38554315 -54.90857434 81.44669124 -4.70318018 44.90201191 
007659990 -15.53925943 8.66653444 21.10735160 -143.15570228 -53.85274928 107.39679794 -4.42582004 35.85513877 
008325989 -13.38169235 -13.51760530 20.40400409 -145.88075374 -64.04165455 69.45094866 -4.36142862 27.87639145 
008991988 -12.69295449 -18.09653773 19.90278949 -150.00292830 -53.96225027 76.27562558 -3.83504011 23.35929295 
009657987 -10.57124951 -22.48407634 19.63546430 -154.84020856 -68.19996800 104.32186941 -3.05487341 18.64424345 
010323986 -10.21956728 -31.46679002 19.58228120 -160.12739928 -54.64510125 93.76776852 -2.49855379 15.15883116 
010989985 -9.27066817 -26.87876492 19.71591736 -164.85245019 -53.70315013 107.34260049 -2.28572563 15.11604245 
011655984 -9.02213432 -30.79283546 20.00541924 -168.99021502 -54.67013761 149.89368822 -1.75619548 13.97856769 
012321983 -8.47110564 -37.97383049 20.34812877 -172.19036379 -57.94854953 102.16835715 -1.63793237 10.15517242 
012987982 -8.71137454 -34.35540451 20.75521726 -174.69166843 -53.64858040 101.64438737 -1.36565351 8.83767705 
013653981 -7.44302085 -36.23018095 21.16503490 -176.52627809 -48.56119394 94.77843863 -1.24642900 5.43424440 
014319980 -8.26522484 -31.86962243 21.57395268 -177.49476513 -47.01609842 121.33413527 -1.20019260 7.04251811 
014985979 -8.20434775 -37.26485268 21.91966892 -178.09084543 -49.96845683 103.36210173 -0.85301473 5.57121522 
015651978 -7.43383229 -36.48453828 22.20167703 -177.87257711 -50.69302151 127.75561811 -0.97490298 2.97449741 
016317977 -7.29058588 -34.83414908 22.16536705 -175.81955190 -51.99329024 90.47560958 -0.47784656 4.24991425 
016983976 -7.28846695 -36.79348725 22.10767338 -173.43681168 -52.64138991 79.62274119 -0.42656351 2.65893170 
017649975 -7.18345941 -37.97470047 22.07167965 -171.17451587 -52.56042134 96.05306464 -0.34243664 2.01372915 
018315974 -6.57874404 -42.81175162 21.88277248 -169.81544972 -52.14546775 78.43587102 -0.28070070 2.92336524 
018981973 -5.92082525 -36.79982873 21.53922532 -169.78661518 -53.34948288 99.88000455 -0.17405108 2.03101361 
019647972 -5.93345468 -38.06785441 21.14550809 -170.26817734 -54.50920140 55.03562621 -0.20675919 -0.03540928 
020313971 -6.36618526 -41.00251770 20.76801773 -170.99255079 -48.90925361 72.47204132 -0.35784885 -2.12937514 
020979970 -6.14160546 -36.45709753 20.39838297 -171.89338241 -50.92451432 63.68590826 -0.03427590 -0.77811208 
021645969 -6.10036387 -33.97158010 20.05883396 -173.21580115 -47.89732854 84.40214099 0.00000000 0.12000000 
022311968 -6.04879938 -33.32996201 19.74331265 -174.76527417 -49.96586384 88.90403596 -0.19532406 -0.74310238 
022977967 -5.49234552 -32.73997293 19.43483025 -176.64954449 -47.35858973 74.50937533 0.00000000 0.86081562 
023643966 -5.48940207 -33.50422817 19.18478083 -178.56195057 -47.99392507 75.92216255 -0.09111381 -0.71194858 
024309965 -5.21621512 -33.61902154 18.95306965 179.26135889 -47.19512937 72.42919214 0.00000000 -3.02049781 
024975964 -5.50713309 -33.35784850 18.77129464 176.98623095 -47.64950790 60.22285986 0.00000000 -1.87564434 
025641963 -4.91218029 -29.36167569 18.66737989 174.61516576 -47.00754618 69.16095062 0.00000000 0.09808513 
026307962 -4.83618007 -32.80305242 18.60276274 172.33754735 -49.40953690 79.87901030 0.00000000 -2.07597674 
026973961 -4.65250816 -30.37750952 18.58431216 170.01988687 -45.95190580 76.15737957 0.00000000 -0.69448123 
027639960 -4.25519887 -28.92936602 18.61971849 167.98281120 -49.28747793 52.42343156 0.00000000 -1.72253441 
028305959 -5.02589201 -26.89282342 18.71120136 165.98968403 -50.26264239 50.78560763 0.00000000 -2.12786198 
028971958 -4.21272107 -26.86720357 18.82631049 164.07979753 -45.54673441 67.77500595 0.00000000 -1.67804597 
029637957 -4.41709954 -26.19100425 18.97570532 162.76670809 -46.73786008 69.69537102 0.00000000 -1.80093742 
030303956 -4.51878750 -25.45235448 19.15654648 161.54194385 -45.20455103 67.88965079 0.00000000 -1.01442921 
030969955 -4.70348029 -25.79137235 19.34249207 160.43089590 -48.19989528 63.39202217 0.00000000 -1.16745644 
031635954 -4.68793489 -25.04094125 19.52159352 160.11801285 -48.72105272 61.78835617 0.00000000 -3.30113295 
032301953 -3.86581324 -21.96794620 19.72743258 159.30918303 -45.12956513 69.18605375 0.00000000 -2.18542720 
032967952 -4.09755731 -23.90805381 19.91991458 158.96317283 -44.34826515 54.19550580 0.00000000 -0.91616893 
033633951 -4.06921166 -23.38195543 20.13706603 158.82374377 -46.05448948 61.73111838 0.00000000 -1.83663708 
034299950 -3.62452587 -18.76011819 20.35218041 158.85213934 -46.17573020 62.01303754 0.00000000 -0.83305765 
034965949 -3.65624042 -21.16783000 20.54906725 159.05198911 -44.32148090 64.85795090 0.00000000 -1.64070383 
035631948 -3.36056946 -21.30824644 20.75856258 159.38340955 -44.54738051 80.65162765 0.00000000 -1.62692533 
036297947 -3.98631523 -21.82857480 20.93793729 160.08886036 -47.27374030 55.87169076 0.00000000 -2.35463570 
036963946 -3.62736646 -19.84881656 21.12371815 160.68345986 -45.53556631 52.13319079 0.00000000 -2.90541882 
037629945 -3.70704555 -19.66331548 21.31298770 161.36032907 -43.86258104 76.91012695 0.00000000 -3.02813446 
038295944 -3.54197998 -19.48752060 21.38555053 162.57492213 -44.00800062 53.91125013 0.00000000 -3.20694669 
038961943 -3.60160513 -18.32860406 21.22889715 163.08551623 -42.61847698 58.37834638 0.00000000 -3.35920750 
039627942 -3.23581970 -18.10560809 21.02640897 163.65331963 -44.59017063 60.24241227 0.00000000 -3.10420393 
040293941 -3.33722820 -15.78035503 20.83344644 163.98565632 -43.46077445 70.72735716 0.00000000 -0.75500274 
040959940 -3.39837914 -15.99267880 20.60691003 164.33108067 -43.87189716 69.04019600 0.00000000 -2.26863133 
041625939 -3.39602333 -15.14586198 20.40152284 164.54166267 -44.03814649 69.40917002 0.00000000 -3.96785460 
042291938 -3.50114174 -14.74864677 20.20019748 164.60901196 -43.31539737 60.43596894 0.00000000 -1.13332158 
042957937 -3.37769479 -15.95356216 20.00759678 164.48217302 -43.11589865 62.79059616 0.00000000 -1.87151822 
043623936 -3.35249972 -14.37780189 19.81117363 164.38355485 -41.84645034 62.86250308 0.00000000 -1.38243615 
044289935 -3.52985395 -14.90112997 19.63946796 164.22853376 -42.15800114 72.67934535 0.00000000 -3.38754492 
044955934 -3.30122675 -12.23034521 19.45098991 163.92363219 -42.33142083 62.79919858 0.00000000 -0.86702191 
045621933 -3.45158044 -14.95879006 19.30945638 163.50460862 -41.59597325 75.67246241 0.00000000 -2.72866680 
046287932 -3.33192414 -13.36725041 19.13498117 163.05164436 -42.84612522 56.81245699 0.00000000 -1.90558983 
046953931 -3.23605694 -11.87951002 19.03057224 162.32909161 -41.42815452 72.90493832 0.00000000 -1.34954330 
047619930 -3.45840679 -12.40796651 18.89935979 161.83911123 -42.54110934 62.67371600 0.00000000 -2.51423261 
048285929 -3.04274961 -11.72352187 18.80295400 161.02451484 -41.36930492 65.82715853 0.00000000 -0.91499418 
048951928 -3.50912760 -12.13146180 18.72331339 160.41682556 -41.61029927 67.25263360 0.00000000 -1.30754879 
049617927 -3.00487679 -11.08367428 18.66658586 159.69512924 -41.73973587 73.34549487 0.00000000 -1.76970021 
050283926 -3.22384841 -10.01185759 18.63566187 158.89907539 -40.38135370 69.96381219 0.00000000 -1.66867431 
050949925 -2.97025091 -10.88978688 18.59775272 158.21372257 -40.36529249 64.56111460 0.00000000 -1.22635789 
051615924 -3.39521755 -11.85082023 18.59759093 157.59869718 -41.49483010 63.35938156 0.00000000 -3.65989107 
052281923 -3.26988255 -9.15716303 18.64015844 156.79287308 -39.80847598 69.81144689 0.00000000 -1.81176016 
052947922 -3.24179851 -10.32765920 18.66290812 156.25609479 -40.99568712 71.95647184 0.00000000 -2.76198521 
053613921 -3.26072115 -10.29737199 18.74384863 156.29612387 -40.72195594 77.98840604 0.00000000 -1.76472306 
054279920 -3.41034836 -11.86452006 18.80634555 155.82714887 -41.44727560 76.40865099 0.00000000 -3.60545189 
054945919 -3.07889538 -9.39967951 18.88199618 155.40605719 -40.13302292 78.32127305 0.00000000 -1.34171428 
055611918 -3.24642457 -9.83820966 18.98276226 155.08773388 -39.63015453 76.35511084 0.00000000 -1.53235448 
056277917 -3.18470713 -12.07093835 19.08337307 154.97820147 -41.30272176 72.65916810 0.00000000 -1.70784986 
056943916 -3.37704545 -9.62883460 19.19182710 154.84684638 -39.59429955 69.15858992 0.00000000 -1.54908433 
057609915 -3.42837342 -9.66550270 19.31766200 154.87717450 -41.10790299 77.50873634 0.00000000 -2.42907100 
058275914 -3.64231850 -10.70432050 19.43068109 154.97505415 -40.73514758 74.56383685 0.00000000 -2.95562184 
058941913 -3.60836766 -7.75207173 19.56490589 155.07960398 -41.49232125 78.64672198 0.00000000 -2.02170528 
059607912 -3.39033613 -10.09697312 19.68404815 155.50798022 -40.82557678 70.30758828 0.00000000 -2.69830514 
060273911 -3.64758837 -11.02360958 19.83788047 155.91818427 -41.03616204 77.84251760 -0.21036229 -4.53882315 
060939910 -3.57585909 -9.21858753 19.95342980 156.29023662 -40.02232405 78.48723977 0.00000000 -2.18248618 
061605909 -3.72621178 -8.12134177 20.08038559 156.87138620 -39.93721497 72.95186943 -0.16555134 -2.80150419 
062271908 -3.87705054 -8.70930663 20.21134114 157.50101601 -40.27702163 74.50101577 -0.21866818 -3.26733462 
062937907 -3.78369463 -9.18904038 20.27044740 157.94235049 -39.77075891 83.37727790 -0.17137661 -3.84412735 
063603906 -3.68473575 -9.78756376 20.23559508 157.92597313 -39.88509759 76.26128586 -0.10250966 -4.32407105 
064269905 -3.91573240 -7.85302943 20.21063463 157.93204095 -40.86025870 80.80283940 -0.28515218 -2.25029576 
064935904 -4.48055849 -8.01711939 20.15708838 158.01113955 -40.02530818 73.26463276 -0.40646445 -4.18537287 
065601903 -3.73902759 -9.38227823 20.13265332 157.94912038 -39.99624973 77.36719265 -0.30611877 -3.03141435 
066267902 -3.95557374 -8.62824690 20.09772715 158.02386963 -39.93136212 76.32752247 -0.25391891 -4.20472342 
066933901 -4.18431450 -9.06227997 20.06370471 158.02483331 -40.01857030 75.11830556 -0.41159191 -3.67076038 
067599900 -3.86242608 -8.21104185 20.00042237 158.10702049 -40.23009290 64.54864441 -0.13535617 -4.77738612 
068265899 -4.33234757 -7.18130120 19.98879855 158.00062019 -39.01848402 76.89806063 -0.33846645 -4.19020838 
068931898 -4.23108573 -8.26535301 19.95117010 157.95967989 -38.50415522 78.44355582 -0.39546598 -3.27036959 
069597897 -4.55780654 -7.51666624 19.90456857 157.96314220 -39.36979549 75.14582410 -0.56531948 -5.19783117 
070263896 -4.55395661 -7.66671363 19.88799049 158.03928274 -40.33823888 76.24672004 -0.59657977 -4.94879348 
070929895 -4.21074570 -10.32963022 19.79117967 158.21082741 -39.63401803 77.13534736 -0.40827925 -3.70377614 
071595894 -4.46414822 -6.97468545 19.71419708 158.38721393 -39.64623536 75.82447465 -0.42554386 -3.24115808 
072261893 -4.37950159 -8.18244085 19.56700156 158.68955015 -39.90773011 77.81042338 -0.58114355 -5.47723387 
072927892 -4.85953241 -6.18065987 19.43360629 158.87367934 -39.20705001 79.87635144 -0.64905215 -3.62321047 
073593891 -4.92637089 -8.39995431 19.29490049 159.12417937 -39.29005047 76.46957460 -0.79831203 -5.01322660 
074259890 -4.86626878 -8.74750100 19.17635175 159.22293811 -39.70610574 77.12079752 -0.70900682 -5.30161887 
074925889 -4.77583728 -8.17512665 19.06404499 159.31787604 -40.12160285 75.36153205 -0.69158778 -6.30405675 
075591888 -4.73152515 -7.24200300 18.94694055 159.27886638 -39.53075224 77.54752701 -0.64424419 -6.20790986 
076257887 -5.07898912 -7.74061531 18.85220804 159.15802523 -40.05865112 79.17195867 -0.83938290 -4.03869409 
076923886 -5.04780352 -9.37757266 18.76132006 159.13125746 -40.58718845 80.17548096 -0.88556198 -6.09758402 
077589885 -5.10107992 -9.51394637 18.65589623 158.93192305 -40.79133242 71.03337615 -0.82443477 -6.18666930 
078255884 -5.21099410 -8.45913865 18.58940769 158.56609779 -38.42884995 76.38609712 -1.05128017 -5.53850565 
078921883 -5.23531628 -12.51908760 18.52539947 158.42911017 -39.37415614 72.12028653 -0.80448146 -7.78048017 
079587882 -5.70537015 -9.42905990 18.48420005 158.18243963 -39.57476320 81.68010968 -1.09274991 -6.06646408 
080253881 -5.71039924 -11.22016873 18.43593501 157.83450996 -39.44069970 81.51282369 -1.12214740 -8.85505034 
080919880 -5.58180440 -11.37481099 18.42458157 157.60309465 -39.23168187 78.14133947 -1.05497311 -7.51297286 
081585879 -5.44568186 -11.07932229 18.40114724 157.31191381 -40.62845057 72.06449577 -1.05970328 -7.57545264 
082251878 -6.08580012 -10.05997035 18.41084762 156.96668988 -38.57017129 75.29512111 -1.18409026 -6.84515583 
082917877 -5.75382392 -12.98697450 18.42869937 156.60938768 -38.44326421 78.53289948 -0.97429927 -7.58539184 
083583876 -5.77368579 -11.00581143 18.46685793 156.29883147 -39.10293028 87.22778210 -1.27324300 -7.77729143 
084249875 -6.37965053 -13.95547259 18.48707538 156.15843721 -39.55208699 79.45755992 -1.39635116 -7.97614857 
084915874 -5.98534165 -12.56039205 18.53289530 155.87599033 -38.45630180 79.40584346 -1.07275654 -9.21454224 
085581873 -6.17833637 -12.55420218 18.58864996 155.77362427 -38.78378504 72.65568298 -1.32478665 -10.15368502 
086247872 -6.08128378 -18.36255164 18.66467030 155.69568034 -39.38606410 77.48814026 -1.16118958 -10.90691261 
086913871 -6.38302502 -15.04027949 18.73918266 155.62889671 -38.86981541 77.94814534 -1.49926369 -9.08005261 
087579870 -6.22479884 -12.35510249 18.80117506 155.65907550 -39.11391833 71.26068800 -1.32248043 -8.34201369 
088245869 -6.31792692 -15.68462740 18.91683569 155.56376332 -38.99385567 84.99938921 -1.40419414 -10.45244646 
088911868 -6.27086425 -14.63461759 18.98500454 155.69583797 -39.64346636 75.41281558 -1.33943881 -9.60289600 
089577867 -6.54266424 -16.81998082 19.02433130 155.59163070 -38.57277616 75.19944153 -1.40265233 -10.50437092 
090243866 -6.23254503 -16.81460213 19.06465323 155.69292254 -38.75503676 79.58959456 -1.35159172 -10.84869334 
090909865 -6.30723300 -19.32215173 19.11266270 155.69881817 -39.50761140 72.13899670 -1.34427874 -11.60684549 
091575864 -6.78447401 -21.51090016 19.09395752 155.57715315 -38.19213335 74.19719677 -1.47287907 -13.25147725 
092241863 -6.68725543 -18.96708770 19.08005430 155.54362383 -38.72032945 78.02072227 -1.59194690 -11.19089098 
092907862 -6.69161341 -22.15958517 19.08402886 155.48779263 -39.04967153 77.13876603 -1.51554467 -14.08981152 
093573861 -6.63457078 -23.55061595 19.06393571 155.28423839 -38.19609183 73.79948368 -1.58446411 -14.16978049 
094239860 -6.25089132 -23.95063008 19.06669652 155.35934813 -38.37918993 73.25967328 -1.34977863 -14.32414564 
094905859 -6.82140885 -25.78739879 19.06248908 155.20062048 -37.73893794 75.03708250 -1.45396645 -15.08654843 
095571858 -6.85192303 -21.96633361 19.04956410 155.15045331 -37.78374369 72.82676686 -1.77988036 -13.22752292 
096237857 -7.00470467 -26.56706246 19.05981257 155.06887319 -38.06644504 74.68246751 -1.55762422 -14.36412869 
096903856 -6.78998894 -26.36872088 19.07050432 155.01059582 -38.18829842 78.56021079 -1.56023875 -14.46942806 
097569855 -6.75377817 -29.77411061 19.06341591 154.95381712 -38.21971288 68.53577243 -1.51293650 -16.74686937 
098235854 -6.37361203 -26.32851699 19.06811366 154.90477950 -38.25717560 77.65602860 -1.51059987 -15.46594952 
098901853 -6.63525520 -28.41259164 19.05502634 154.81761986 -37.45151617 74.12642893 -1.45705433 -15.45237649 
099567852 -6.75821703 -27.24561287 19.05741066 154.72885515 -37.46326928 71.40688654 -1.56618507 -16.60348415 
100233851 -6.96404545 -30.95900035 19.06261284 154.64104340 -37.86474598 74.19270254 -1.66033437 -17.61415950 
100899850 -6.62919343 -27.74813628 19.07705884 154.88868638 -38.67041788 74.64508907 -1.56561147 -16.86712097 
101565849 -6.97528321 -28.19921244 19.07562918 154.72164764 -37.70409435 75.69416541 -1.86041721 -17.44906487 
102231848 -6.79741567 -29.00956506 19.08463023 154.61137184 -37.40102750 70.06173208 -1.50258763 -17.39471514 
102897847 -6.78748355 -33.88128301 19.08891870 154.54124127 -36.68055072 75.58150519 -1.56431791 -17.58515719 
103563846 -6.90442592 -35.60332836 19.09112976 154.63434316 -37.70788267 70.18838487 -1.76317838 -19.71531936 
104229845 -6.68047247 -30.04244392 19.12221239 154.62887545 -37.33635680 74.94771829 -1.73934277 -18.31319633 
104895844 -6.44897255 -31.71244092 19.10923738 154.54310183 -36.91896696 69.82869410 -1.64585030 -18.76489734 
105561843 -7.41144887 -32.33443039 19.12363431 154.52095684 -36.34576330 72.70384935 -1.91354171 -17.92335534 
106227842 -7.11711354 -33.01571074 19.14019344 154.65284925 -37.27524682 70.04763358 -1.77535594 -19.79601818 
106893841 -6.94254328 -34.17661608 19.17014343 154.56887458 -36.75500199 73.88259864 -1.56393986 -19.80775182 
107559840 -6.24356025 -31.06785076 19.16373349 154.72352597 -36.77611791 73.35732624 -1.41409546 -18.87358929 
108225839 -6.74978990 -33.52360161 19.18487014 154.66365945 -35.62790304 72.93462214 -1.67219936 -21.29516406 
108891838 -6.73623225 -33.93832011 19.20117174 154.76369436 -36.89967890 75.29705507 -1.67392896 -20.57234243 
109557837 -6.40132227 -32.64093203 19.20233499 154.83734994 -36.71116091 75.43706377 -1.69000746 -21.53227468 
110223836 -6.70895425 -34.94344308 19.17081555 154.86287016 -36.05364533 70.39344837 -1.50613942 -21.02627267 
110889835 -6.61857283 -32.87228444 19.17455231 154.81863743 -36.18288509 74.16382300 -1.64894477 -21.40071473 
111555834 -6.69905021 -35.71258005 19.17270675 154.91944674 -35.46242367 75.51804113 -1.46563878 -22.73617024 
112221833 -6.48563078 -34.52507467 19.16913863 154.99811501 -36.18406373 69.64577808 -1.50114832 -22.99636839 
112887832 -6.59901397 -37.75501846 19.15695141 155.14293281 -36.25525154 70.91734848 -1.52648125 -23.83130485 
113553831 -6.78305549 -35.40571205 19.17765684 155.09982361 -35.76550570 75.18677354 -1.75404776 -22.59926187 
114219830 -6.71820190 -36.81892332 19.18743179 155.16598196 -35.67702341 72.90203954 -1.72291289 -24.76440088 
114885829 -6.76867476 -35.11368029 19.18990538 155.25705010 -35.83185455 73.10733742 -1.66699872 -24.06125697 
115551828 -6.44156582 -35.57522663 19.20986889 155.24849970 -35.45128979 75.84834691 -1.60962310 -23.37625434 
116217827 -6.01567997 -36.62839744 19.22966444 155.45444832 -36.43657977 72.06607646 -1.47591398 -22.75375182 
116883826 -6.52168766 -38.23806867 19.26122763 155.41961244 -35.95412918 76.60295553 -1.55668068 -24.71902810 
117549825 -6.24067619 -38.48233810 19.29657201 155.56802904 -36.61091343 80.26710932 -1.46558777 -24.28264337 
118215824 -6.06034665 -38.74013256 19.31862687 155.58645973 -35.96406715 76.74545815 -1.44002252 -25.25166213 
118881823 -6.58694726 -40.11343540 19.35643858 155.75078956 -36.03187558 74.52937679 -1.59408702 -27.95710235 
119547822 -6.27285350 -39.15975280 19.40181212 155.87369507 -35.63078614 73.50365590 -1.45940421 -26.04403849 
120213821 -5.80257230 -38.12038761 19.43652120 155.91087771 -35.24333297 75.35636735 -1.26448345 -24.15855339 
