! created by kelvin at Sun Aug 25 22:42:05 EDT 2019
! generated using vna/J Version 3.3.2
# Hz S DB R 50.0
001000000 -1.39087414 -160.29921080 13.99518554 -131.63128720 -27.17011672 -153.39578867 -1.47862101 171.65517866 
001665999 0.00000000 177.29150503 15.19423630 -128.65901273 -33.25029130 -158.20435549 0.00000000 -38.33340103 
002331998 0.00000000 20.04785118 16.35168332 -130.44325191 -35.57686235 -147.33077444 0.00000000 11.77880991 
002997997 0.00000000 10.48194922 17.08693928 -133.42728106 -39.25378961 -123.26974611 -0.92106789 17.39795320 
003663996 0.00000000 8.47851267 17.46373987 -136.66260167 -39.20843235 -116.57683167 -2.81874055 20.12853106 
004329995 0.00000000 8.51437394 17.67137621 -139.72475221 -43.67537164 -107.84784224 -3.64408281 22.32312123 
004995994 0.00000000 6.59919191 17.76205656 -142.67458106 -43.06608193 -95.74861354 -4.42296484 21.05379634 
005661993 0.00000000 6.35822012 17.86199555 -145.49779145 -45.26946590 -103.03539055 -4.77394178 21.12284269 
006327992 -0.28089782 5.53042857 17.91705309 -148.05253489 -44.07203818 -101.54177569 -4.98662292 20.31164132 
006993991 -0.58908714 5.56514161 17.95449664 -150.50105380 -44.18714179 -63.17431550 -5.35910521 20.31037339 
007659990 -0.93902481 5.45342222 17.80738635 -152.15085204 -43.66629647 -75.76028450 -5.42712048 21.47033876 
008325989 -1.42981375 5.51645945 17.33763355 -153.60320980 -47.99511716 -56.60325622 -5.67248388 21.45449461 
008991988 -1.62285779 5.00478183 16.99620928 -155.63580352 -44.43155044 -69.47846504 -5.91244080 21.38133346 
009657987 -1.93440006 3.92669071 16.80810379 -158.27720451 -44.50034029 -74.33233639 -6.03129388 21.13911836 
010323986 -2.08070110 4.74893648 16.72456675 -161.12563306 -42.86188941 -38.25787157 -6.12821772 21.21479811 
010989985 -2.39524644 4.65539416 16.75174857 -163.91944553 -46.12227898 -44.16995019 -6.24899396 21.10653964 
011655984 -2.58950648 4.29634445 16.84571295 -166.46588168 -44.17420030 -38.20648071 -6.41933146 20.07650989 
012321983 -2.72697855 4.77529625 17.00326759 -168.64868561 -44.18970572 -28.53930159 -6.45135695 20.58396573 
012987982 -2.78564689 4.21971212 17.19575816 -170.60831853 -44.89859612 -28.38719718 -6.62517235 20.57980688 
013653981 -2.94996376 3.61990582 17.40853616 -172.07691872 -42.61208379 -21.57088075 -6.85991072 19.02596411 
014319980 -3.05416488 4.55732591 17.66278497 -173.14151200 -48.38595090 -5.96875878 -6.81266203 19.50945549 
014985979 -3.12289666 4.64617499 17.88442567 -173.89484137 -43.78205521 -11.10134116 -6.96639282 20.94013629 
015651978 -3.15966887 4.39413014 18.11585346 -174.56104302 -48.33825337 -14.26102563 -6.91414187 19.52925679 
016317977 -3.23032343 4.64962061 18.25249048 -175.30794667 -43.72171156 -0.40487055 -7.24421223 18.90931021 
016983976 -3.27966993 3.10066147 18.33340802 -176.14040972 -42.42662186 -1.05725202 -7.13563148 18.16187024 
017649975 -3.38913461 3.26433975 18.30757220 -177.51749175 -43.51451627 3.67694471 -7.18138143 19.06636260 
018315974 -3.41944970 3.11398848 18.29154806 -178.67134120 -47.01935411 4.27235411 -7.50236478 17.17988315 
018981973 -3.51556210 2.90696233 18.26738338 -179.94631875 -44.04583702 6.80749078 -7.48342722 17.77236644 
019647972 -3.47148524 2.97844932 18.14958037 -360.66433593 -42.97822844 19.28208664 -7.45028046 17.72016750 
020313971 -3.53622049 2.44004643 17.90329808 -360.77049984 -43.34380908 10.14388864 -7.77333824 18.24997222 
020979970 -3.53214296 2.23474565 17.65017133 -361.12177921 -43.18249367 20.03491637 -7.71943790 17.33029913 
021645969 -3.65841645 2.03946107 17.41538528 -361.59026612 -43.65906631 11.43739181 -7.85662158 16.14752216 
022311968 -3.60916353 2.81389631 17.18092586 -362.28612114 -43.83606719 25.18751963 -7.78430972 16.72866329 
022977967 -3.73464056 1.50826692 16.94491644 -362.94423107 -43.19704299 18.71305285 -7.98516482 15.60898248 
023643966 -3.64768380 1.62598537 16.73522939 -364.05572659 -43.51290793 28.35787612 -8.01624703 16.28424041 
024309965 -3.75668055 1.67544068 16.51570622 -365.21717340 -42.23963019 13.07186653 -8.34082843 14.74387454 
024975964 -3.73582535 0.09228398 16.32551233 173.48541912 -43.56676552 44.17060709 -8.37819612 13.68841590 
025641963 -3.89606597 1.14429105 16.16176491 172.05082117 -44.91082342 31.18149425 -8.47429506 13.55047540 
026307962 -3.83504391 0.95272350 16.00500487 170.52903712 -42.29872831 29.38325881 -8.61698046 14.33975236 
026973961 -3.79696321 0.42181408 15.90268530 168.83726190 -42.81347336 40.68968430 -8.64036655 12.73185223 
027639960 -3.82566078 -0.12943935 15.81849322 167.28769661 -41.35360600 43.66292491 -8.80159544 13.68888692 
028305959 -3.95199305 -0.30676032 15.76684650 165.59942879 -42.61924057 43.12155751 -8.79329702 12.17037778 
028971958 -3.96490964 0.03551111 15.75251068 163.94675699 -41.37635922 39.21287379 -8.86893897 11.51787072 
029637957 -3.99728390 -0.38345796 15.75864258 162.58369338 -43.72821790 36.77608889 -8.93215907 11.91280290 
030303956 -4.01291033 -0.87591218 15.81918219 161.10594007 -41.02540569 44.07135474 -8.97145130 11.70327319 
030969955 -4.00246822 -1.21807342 15.87986859 159.68196128 -41.95241905 43.66329295 -9.07388506 12.00891370 
031635954 -4.05717245 -1.47157120 15.96144058 158.52888166 -41.61621418 45.62997409 -9.40715813 10.11882858 
032301953 -4.16263559 -1.40569896 16.06360896 157.25485224 -42.38333831 47.11394949 -9.67854063 8.64062384 
032967952 -4.07964524 -2.48908031 16.17956752 156.21285116 -42.46954514 48.95322753 -9.36874436 9.43364367 
033633951 -4.16484408 -1.85402086 16.32397159 155.17225001 -42.11928490 56.72570416 -9.47173531 10.25049483 
034299950 -4.21735234 -2.50785041 16.46692653 154.44850199 -42.50569208 55.71726952 -9.57572714 7.85740221 
034965949 -4.23419900 -3.12850983 16.62681255 153.72694421 -41.88892683 53.20489217 -10.01865172 7.13552032 
035631948 -4.41116793 -3.49431730 16.79454332 153.27201960 -43.14282147 56.37013082 -10.04246640 7.97232648 
036297947 -4.31666219 -3.42410984 16.96743389 152.92589616 -41.40709220 50.15163010 -10.03066621 7.06298835 
036963946 -4.27903270 -5.01608820 17.12632779 152.65861335 -41.61692686 51.16428599 -9.96896789 5.50971503 
037629945 -4.39273353 -4.82553042 17.31219947 152.53538572 -41.39502675 50.56174626 -10.32528466 5.77237299 
038295944 -4.47904747 -5.06335235 17.45322284 152.50785677 -41.69101311 47.02018417 -10.22294912 5.31624493 
038961943 -4.49785019 -5.46416411 17.47604840 151.84916011 -41.60218534 55.51886321 -10.51215880 3.80500411 
039627942 -4.56470799 -7.14774883 17.46194985 151.06968769 -41.29510244 63.39039473 -10.44626403 1.46304732 
040293941 -4.55491163 -7.10337689 17.43813641 150.40881705 -40.05798002 54.92853537 -10.69322826 1.51730739 
040959940 -4.65883498 -6.94228579 17.42664388 149.54289040 -40.81564798 69.30755607 -10.86146862 1.52560986 
041625939 -4.73083179 -7.88023140 17.42519202 148.90320944 -42.26716230 67.63127965 -10.72579294 1.01630727 
042291938 -4.69607258 -8.36381863 17.41223238 148.20251667 -41.82466486 62.88366078 -10.87242541 0.39397946 
042957937 -4.72422548 -8.72718931 17.38696684 147.41715148 -40.76116994 55.29483687 -10.94421139 -1.46522938 
043623936 -4.83227257 -10.27666667 17.32645869 147.07503244 -41.19147633 55.66101105 -11.10680569 -3.30706769 
044289935 -4.82432893 -10.27666667 17.24094941 146.72383151 -42.02086840 56.30319499 -11.26182539 -3.45761791 
044955934 -4.75156949 -10.84097489 17.09686720 146.63228596 -42.22342823 60.64916987 -11.15652395 -6.30130869 
045621933 -4.77744027 -11.33360542 16.92994495 146.43262582 -41.50329038 54.16533287 -11.23787353 -6.20559867 
046287932 -4.93552756 -11.85682756 16.78174657 146.20873013 -41.59008763 58.96731041 -11.31388522 -5.19312097 
046953931 -4.88081886 -12.70102468 16.63960480 145.83761571 -41.49839522 67.14176001 -11.64938501 -8.44619950 
047619930 -4.81984669 -13.95270043 16.49850825 145.39334515 -42.38087180 51.00263747 -11.44300022 -10.49878522 
048285929 -4.97727711 -13.55112294 16.37085176 144.85228871 -41.70234729 65.29380447 -11.49038471 -12.36344190 
048951928 -4.92144757 -14.87563980 16.26092063 144.26502642 -43.20102269 61.76033248 -11.55553395 -12.37586884 
049617927 -4.93734134 -15.08443528 16.15764517 143.49423299 -41.23858380 60.12780477 -11.76740696 -15.01216971 
050283926 -5.05167390 -15.88400572 16.05849037 142.79134366 -41.38075400 61.87606498 -11.90340641 -16.12789591 
050949925 -4.90019451 -16.90979567 15.98839224 142.02749320 -42.31218446 64.38526730 -11.11968652 -15.71626963 
051615924 -4.92752344 -18.23236409 15.90800444 141.12609811 -41.13085229 62.21701840 -11.76361451 -16.83905707 
052281923 -5.04878208 -17.74478852 15.86518354 140.22266033 -42.29009019 67.44732062 -11.64108192 -20.44329840 
052947922 -4.91811213 -18.25684163 15.82211276 139.18845548 -41.53838387 66.97943446 -11.63501752 -21.49076427 
053613921 -4.96333371 -19.26752689 15.81483076 138.72091804 -42.02725484 66.44865596 -11.66796381 -23.61039318 
054279920 -4.79024515 -21.22562958 15.80975693 137.76381842 -42.11009263 60.85790057 -11.43598370 -21.38478586 
054945919 -5.03362996 -20.58334442 15.83183995 136.73838724 -41.59986812 58.12289631 -11.70930635 -24.85265264 
055611918 -4.92601527 -21.76687667 15.87189343 135.89185647 -42.25394398 67.38228576 -11.56695557 -27.07326765 
056277917 -4.79458563 -22.29849849 15.92735891 134.98492850 -42.57801149 61.72220624 -11.39336628 -27.83158236 
056943916 -4.93075696 -22.41991178 15.99143918 134.09471557 -42.81360906 62.96374225 -11.77169255 -29.42813588 
057609915 -4.98770008 -23.60742125 16.07252742 133.30014302 -41.81217526 60.42413744 -11.63998654 -29.65234611 
058275914 -4.90774053 -24.33374132 16.18810520 132.47618259 -42.85278517 62.37516612 -11.61369137 -31.83632569 
058941913 -4.84122754 -24.45433945 16.28904560 131.92739970 -41.33213837 55.45956906 -11.15635497 -31.63049901 
059607912 -4.85475685 -25.67938726 16.40180325 131.44328822 -42.90629423 56.50157183 -11.13941512 -33.91357942 
060273911 -4.81497045 -25.63744810 16.53027197 130.98032622 -43.21954338 58.78919431 -11.07581865 -34.79551421 
060939910 -4.76025108 -26.50814973 16.66154454 130.60441142 -41.95822797 58.06826946 -11.25669713 -36.05598634 
061605909 -4.77058481 -26.98803920 16.79975341 130.26481111 -41.91104667 64.45775041 -11.23905551 -36.95756820 
062271908 -4.60827735 -28.19983977 16.92663842 130.22230055 -42.31002039 60.04675570 -10.67700288 -38.77566167 
062937907 -4.68692497 -27.85253400 17.07435722 130.19810559 -43.16098205 56.52858710 -10.87317178 -39.35273765 
063603906 -4.78170203 -28.44008724 17.21247966 130.23947788 -42.79624290 58.93050286 -10.80241517 -39.77113019 
064269905 -4.55250559 -29.92095953 17.29027529 130.15775982 -42.58166956 44.26128035 -10.48968629 -41.39651938 
064935904 -4.59641200 -29.17406766 17.27684955 129.67208271 -41.65143856 55.80144879 -10.53025701 -42.62282696 
065601903 -4.49733378 -30.86516315 17.25810782 129.27209446 -42.47961309 44.03660597 -10.62304372 -43.75451540 
066267902 -4.45099252 -31.49473395 17.22005752 128.75844945 -42.41045076 45.68855052 -9.93410841 -45.04210371 
066933901 -4.42586255 -31.76243566 17.19362544 128.37783553 -41.09642411 51.78085143 -10.28334145 -43.98990595 
067599900 -4.41346652 -32.76758536 17.16750271 127.99269714 -42.67760725 43.58598749 -10.13713727 -47.44639320 
068265899 -4.41216840 -32.56685080 17.14951539 127.47417001 -42.55578907 53.99483097 -10.23536621 -46.54027705 
068931898 -4.26274758 -33.47475358 17.12952777 127.12276602 -43.41728334 49.58011195 -9.91512932 -46.97137293 
069597897 -4.38716816 -33.85775464 17.10062522 126.70530407 -41.99519682 45.36822268 -9.91687335 -47.56858643 
070263896 -4.34904839 -34.87447104 17.06408408 126.25802922 -41.84340636 48.14744694 -9.99407328 -48.86621734 
070929895 -4.41631888 -34.71993075 17.03964072 125.83378126 -43.27308908 56.52230788 -9.85266852 -47.68652573 
071595894 -4.20427413 -34.44549830 17.00096595 125.51141367 -42.71029418 37.26192210 -9.79452619 -48.26497738 
072261893 -4.09271214 -36.36560226 16.97506880 125.10590515 -40.32123151 32.29925080 -9.45936890 -51.81485923 
072927892 -4.08578065 -36.06666811 16.93142868 124.75070301 -40.93335259 36.60738356 -9.48585271 -50.43843961 
073593891 -4.16636394 -35.95208866 16.90005162 124.35137876 -40.75765927 45.74816375 -9.49331265 -50.68695501 
074259890 -3.99686813 -37.17778232 16.81072349 124.21826509 -41.48673066 34.23034562 -9.26160477 -52.33596036 
074925889 -3.98724551 -37.39075079 16.68952158 124.07186271 -39.94552326 39.09337898 -9.24514107 -53.59471011 
075591888 -4.05450508 -38.25698922 16.58179479 123.91974561 -42.10374149 42.88905165 -9.03274074 -53.85622858 
076257887 -3.96754531 -38.52302789 16.45130166 123.80910975 -41.38951878 42.57119214 -9.06788202 -55.83146055 
076923886 -3.84619518 -38.82941787 16.34391263 123.65191281 -41.46213808 31.65041135 -9.00121683 -56.90281152 
077589885 -3.79665189 -40.16855523 16.24116657 123.32339623 -40.66183600 39.01886185 -8.80123426 -57.36248894 
078255884 -3.85572554 -40.25007233 16.13562473 123.01305495 -39.47627697 46.60002081 -8.72986817 -58.26054393 
078921883 -3.95254361 -41.11595960 16.06384863 122.83980337 -40.80192280 42.23482101 -8.68799264 -56.89501205 
079587882 -3.83677358 -40.98346706 15.98984203 122.52833159 -41.02917830 39.57489606 -8.75080360 -58.00263890 
080253881 -3.76899476 -41.61492728 15.92594036 122.14953393 -42.13561982 33.50539795 -8.76001948 -59.03243283 
080919880 -3.67660791 -41.96775480 15.85730172 121.63115142 -39.86398749 32.16886163 -8.36558534 -58.72541599 
081585879 -3.71191942 -43.06751303 15.81076776 121.21748158 -40.46451800 34.74479086 -8.45066145 -61.08440811 
082251878 -3.57846568 -44.32047624 15.77184713 120.80840304 -40.61521340 24.39155826 -8.28300615 -62.07876216 
082917877 -3.59812456 -43.92202431 15.75019870 120.27642082 -39.34876235 34.29085131 -8.26568291 -61.39613570 
083583876 -3.62808882 -44.38102970 15.74138873 119.73302171 -40.78235488 22.43659919 -8.28164411 -61.85876197 
084249875 -3.42565563 -45.37105505 15.73636087 119.35476689 -39.92330767 26.41646538 -8.05651898 -62.91876863 
084915874 -3.48326166 -45.60877428 15.73893159 118.87649849 -41.17870371 25.12138160 -7.90167764 -61.57873490 
085581873 -3.44792007 -46.14720174 15.75953697 118.40002469 -40.19788416 26.34216853 -8.04484560 -64.35258437 
086247872 -3.41885655 -47.37097235 15.77930866 117.84811062 -40.75601092 28.03643858 -7.94183475 -65.11307921 
086913871 -3.40541645 -47.71883657 15.82995217 117.48850446 -39.79459566 32.27900115 -7.75414689 -65.48468561 
087579870 -3.40474878 -47.77499511 15.88469817 117.01554333 -39.97818068 28.97564530 -7.73637718 -64.22749257 
088245869 -3.35401749 -48.21803661 15.94849485 116.65894865 -39.77456011 20.28231287 -7.79623642 -66.00249516 
088911868 -3.29433959 -48.84337968 16.00979571 116.28772015 -40.16817153 21.48635933 -7.58157247 -66.59585514 
089577867 -3.31555512 -49.85030615 16.07872155 115.93348023 -38.86966755 23.06288643 -7.54845995 -66.70106101 
090243866 -3.12812035 -50.22009665 16.16546679 115.76095935 -39.94697513 15.96423434 -7.45527490 -67.22204398 
090909865 -2.99801813 -50.49629776 16.24413724 115.41420239 -38.85846211 24.17739779 -7.19860265 -67.47309760 
091575864 -3.02381721 -50.96148326 16.35137825 115.24640183 -39.17068511 21.50989359 -7.05734842 -67.21123533 
092241863 -2.97581444 -52.13749468 16.40744927 114.93475031 -38.85647701 24.16604456 -7.11862029 -69.50103161 
092907862 -3.08654702 -51.51953264 16.46428470 114.82991749 -38.80293387 17.43113769 -7.29380356 -68.71387013 
093573861 -2.95445819 -52.42253964 16.52246586 114.56494784 -38.41295850 15.47492922 -7.10338576 -69.54089122 
094239860 -2.97145310 -52.77067104 16.56814423 114.23048835 -38.66173418 17.00635233 -6.98004046 -69.32128286 
094905859 -2.96451797 -53.08463926 16.56081123 113.80613505 -39.03174901 11.01870263 -7.07106560 -69.53025935 
095571858 -2.87321415 -54.40102516 16.56573614 113.40723271 -39.12241335 17.80777641 -6.84290242 -70.75956876 
096237857 -2.86722809 -54.17339126 16.57875133 112.96138237 -38.16294297 17.68250520 -6.92688299 -69.39092622 
096903856 -2.65165060 -54.40315551 16.57883818 112.62977537 -39.11073955 14.12277821 -6.68283061 -71.29657365 
097569855 -2.59080274 -54.49939968 16.59696545 112.04457550 -37.85298847 16.20384923 -6.67689821 -71.45938861 
098235854 -2.70654992 -54.82666170 16.60702196 111.63573733 -38.04516713 16.70325939 -6.57392690 -69.50497737 
098901853 -2.54690787 -54.44139482 16.61094828 111.19727770 -37.86882317 11.80528005 -6.67461530 -70.32934836 
099567852 -2.69382542 -55.70725524 16.62189086 110.62062482 -37.89944753 19.89249531 -6.77655861 -71.06478673 
100233851 -2.63269295 -56.60704593 16.63569214 110.21463522 -37.29687679 18.29842625 -6.66476938 -72.54221007 
100899850 -2.36370358 -56.53811842 16.64718303 109.65723770 -37.73704069 15.64760857 -6.48921874 -72.42936960 
101565849 -2.44768122 -56.87578408 16.65539642 109.07350643 -37.00342702 16.48996844 -6.48514968 -72.68612660 
102231848 -2.43837230 -56.56694324 16.66572727 108.61113741 -37.45167810 11.67565060 -6.44688144 -72.00985371 
102897847 -2.34349314 -57.57263728 16.68670366 108.13569122 -37.65525969 13.36279297 -6.31517557 -73.08795461 
103563846 -2.47917850 -56.92643163 16.71277508 107.59295982 -37.62759608 13.31419737 -6.70007953 -71.24038943 
104229845 -2.31224796 -57.34348836 16.72083246 106.95187916 -36.97100448 15.62592702 -6.53324635 -71.62083340 
104895844 -2.38233891 -58.62290108 16.73860359 106.38488788 -36.96224108 13.46498993 -6.59942113 -72.71508929 
105561843 -2.21547939 -58.24697231 16.75545546 105.91318028 -37.74586473 7.34019852 -6.47649462 -72.80973598 
106227842 -2.30260679 -57.84111676 16.71873177 105.47429963 -36.88818851 10.45368248 -6.54152641 -70.75441528 
106893841 -2.13467574 -58.46350763 16.63460509 105.13400411 -36.84811120 9.34593015 -6.41174054 -71.91943783 
107559840 -2.22174814 -58.51270399 16.52183284 104.86584686 -36.62150304 5.58842496 -6.38922058 -72.29726176 
108225839 -2.14993610 -59.04867119 16.42732261 104.45051736 -36.67935860 4.25512266 -6.58325625 -73.20399048 
108891838 -2.25524966 -58.46594129 16.35377815 103.98897108 -37.10810619 4.19020450 -6.58175485 -71.40530331 
109557837 -2.11250777 -58.52070840 16.27713005 103.41820189 -36.80638798 2.86781726 -6.42541962 -71.91752271 
110223836 -2.29511439 -58.86367470 16.19437232 102.77249977 -37.23925980 6.47809018 -6.59089869 -72.71986613 
110889835 -2.23015790 -59.32637455 16.12455597 102.10284685 -36.22483004 2.56796087 -6.54264697 -71.94435201 
111555834 -2.19229008 -58.70214183 16.07036135 101.38400916 -35.74351631 1.58368282 -6.89833022 -72.34099641 
112221833 -2.32520758 -58.69854524 16.04034539 100.50267421 -36.68794204 6.73261260 -6.86606549 -72.45821389 
112887832 -2.23662551 -59.24044536 16.01179816 99.65136333 -35.38546562 3.99410795 -6.85578007 -71.66261215 
113553831 -2.27217439 -58.68477610 15.99438340 98.75471214 -35.32102120 -0.96051823 -6.97152617 -71.50913555 
114219830 -2.40345646 -59.34610293 16.00347066 97.72506364 -36.19770169 1.75981171 -7.09663976 -72.86682722 
114885829 -2.26206476 -59.15369355 15.99410874 96.75140299 -35.75769300 -1.64622045 -7.25540751 -70.69839003 
115551828 -2.40330715 -57.88092597 16.04755945 95.81520446 -35.91340083 -1.13386249 -7.14567926 -70.51764464 
116217827 -2.39527437 -58.10869536 16.08634823 94.75022520 -35.56411326 1.51445915 -7.22996568 -70.16258994 
116883826 -2.47166330 -58.48845368 16.14090995 93.83413336 -35.49073733 -0.53758720 -7.30320896 -71.46382317 
117549825 -2.36045378 -58.36666029 16.22685440 92.94132515 -34.57013166 -5.26942776 -7.59754034 -70.73244807 
118215824 -2.71025202 -58.38261694 16.32907365 92.02691816 -35.55752810 -4.22531326 -7.77909398 -69.74869615 
118881823 -2.83225090 -58.53020469 16.43865219 91.22597235 -35.59118614 -8.32242680 -8.08065035 -70.38121852 
119547822 -2.93107542 -58.99533343 16.54700177 90.32108607 -35.45662010 -8.86139337 -8.11706897 -70.16720710 
120213821 -3.04558936 -57.96807942 16.66938505 89.55806011 -35.18508495 -3.73024630 -8.45088225 -71.54063406 
