! created by kelvin at Sun Aug 25 10:57:43 EDT 2019
! generated using vna/J Version 3.3.2
# Hz S DB R 50.0
001000000 0.00000000 152.21325736 16.78302625 -125.67035779 -42.39632190 18.38269797 -0.68078060 81.98374034 
001665999 -2.88697262 -73.37697479 18.46481308 -123.71442099 -45.02419757 79.34392414 -2.89356022 19.81561584 
002331998 -2.33243112 -41.04257787 19.85659025 -125.83172237 -48.40909902 63.30579909 -0.94006868 12.42215978 
002997997 -2.36809041 -31.05998671 20.77190001 -129.26979063 -53.24174247 97.63729702 -0.48876330 9.76173909 
003663996 -2.68338621 -25.24001234 19.60833839 -133.95610526 -50.80829918 124.96386192 -0.47630118 9.45044907 
004329995 -2.83947517 -22.70951242 19.41551890 -141.19613963 -49.17308779 118.49803173 -0.55125832 9.16424392 
004995994 -2.96012343 -24.04785876 20.08090382 -146.10102657 -46.43285336 108.29627941 -0.48605521 8.31575040 
005661993 -3.15316753 -27.94767984 20.70176952 -145.59820414 -51.65490965 111.86694654 -0.52258110 7.24818418 
006327992 -3.26017875 -32.86283690 20.35841993 -138.91901420 -53.79260391 126.97354325 -0.34274125 7.17059046 
006993991 -3.62649939 -36.82196543 19.32447986 -138.91948675 -50.30580633 113.25847241 -0.37065147 6.21357420 
007659990 -3.68768166 -40.44183429 18.34744207 -141.20462222 -51.80332404 152.29971862 -0.25303171 5.98318974 
008325989 -3.97105782 -44.98776009 17.52590059 -145.75033983 -50.89428785 133.23983506 -0.30341326 5.42452307 
008991988 -4.29478752 -49.06620752 16.99941262 -151.81135413 -51.15309862 113.80244743 -0.20718036 4.55688088 
009657987 -4.35169625 -52.14027542 16.81689006 -158.36690842 -53.71216091 96.60195257 -0.24089162 4.48552765 
010323986 -4.22260110 -55.83186494 16.92884078 -164.81899856 -50.60935618 127.36824124 -0.24661299 4.17982896 
010989985 -4.44538410 -58.15455862 17.23351934 -170.21836280 -51.72223265 131.08646601 -0.12420777 3.77263715 
011655984 -4.38881474 -61.80993129 17.66579872 -174.57983164 -52.29459076 103.13341511 -0.19273043 2.60874956 
012321983 -4.53149071 -62.58865896 18.17371563 -177.83337539 -51.81527586 117.05260069 -0.12347334 3.06052128 
012987982 -4.41265413 -64.42630350 18.68435769 -179.96972286 -51.03012637 99.03780033 -0.21030037 2.62845234 
013653981 -4.53961466 -65.21411935 19.16750691 178.73307195 -52.76589034 110.20777397 -0.20670959 1.84598501 
014319980 -4.74182690 -66.99957205 19.52120714 178.73302242 -53.46545722 116.55716462 -0.08376215 1.73553802 
014985979 -4.81305055 -66.29686829 19.48555341 -178.78045721 -57.88310534 121.71857114 -0.09084483 1.60259884 
015651978 -4.75447153 -66.17978129 19.44716540 -176.40803286 -51.29978635 119.05667377 -0.01126737 1.29051481 
016317977 -4.57723428 -66.76206793 19.39541952 -174.19920014 -51.17254604 96.14534216 -0.09698974 0.98457345 
016983976 -4.51993265 -67.08997185 19.35167782 -171.88915017 -52.74472995 106.69152920 -0.07270702 0.98910852 
017649975 -4.41072560 -66.62351560 19.30649532 -169.67675263 -50.30352612 109.20796875 -0.06782619 0.23941853 
018315974 -4.57837996 -67.14734527 19.25963763 -167.37529378 -51.18381890 104.99919320 -0.02559717 -0.14764466 
018981973 -4.52796868 -66.31632823 18.96560903 -166.92504739 -50.11713335 105.09886151 0.00000000 -0.47506774 
019647972 -4.64974448 -65.71262957 18.50793978 -167.64252673 -53.12439538 74.28409964 -0.06102923 -0.43000000 
020313971 -4.46446492 -65.61891935 18.08657872 -168.69416927 -51.23250149 78.30896132 -0.04297466 -1.30808898 
020979970 -4.64829813 -63.69123312 17.67370816 -170.08047018 -54.39899883 88.96553631 -0.02276398 -0.96238857 
021645969 -4.66009376 -62.49979973 17.29420288 -171.90177225 -50.51089531 98.89340395 -0.03131091 -1.08235224 
022311968 -4.60651496 -60.79616875 16.93642667 -174.02197751 -50.70146384 64.43330205 -0.04928586 -1.32269540 
022977967 -4.71417086 -60.49451185 16.61569138 -176.48466040 -49.99325813 60.64671760 -0.08532506 -1.24515609 
023643966 -4.71219542 -57.97551275 16.34052407 -179.07664755 -51.11752821 45.48843620 -0.04655363 -1.67051924 
024309965 -4.48977658 -57.26324877 16.12920357 178.17426992 -51.81726926 58.22249940 0.00000000 -1.83812579 
024975964 -4.62385225 -55.54158616 15.96878106 175.16804173 -51.54501817 50.51633953 0.00000000 -2.05044163 
025641963 -4.70924048 -54.86316774 15.90492633 172.14206334 -51.85532970 63.24787301 -0.00989830 -2.67548892 
026307962 -4.60593801 -53.32377105 15.89531641 169.27508494 -52.10184193 72.64480644 -0.03549040 -2.80486113 
026973961 -4.53415148 -51.78985753 15.94864121 166.43751931 -48.48711397 69.08410400 0.00000000 -2.63914690 
027639960 -4.57445090 -50.42454789 16.05553368 163.94293665 -46.74030084 54.14081287 0.00000000 -3.56699196 
028305959 -4.59024390 -49.27436300 16.23338349 161.74201192 -50.37740444 64.21977571 -0.00297139 -3.34071529 
028971958 -4.47693948 -48.14951359 16.43437814 159.75573379 -50.80775091 58.04740839 0.00000000 -3.93069504 
029637957 -4.56752792 -47.63600096 16.64261072 158.35935238 -48.60359140 44.45303978 -0.04917335 -4.03221756 
030303956 -4.51180509 -44.47586793 16.88465087 157.29692195 -48.04641930 47.21027118 -0.07030458 -3.35348584 
030969955 -4.48209015 -44.56068789 17.14585252 155.95427471 -47.17037502 70.03462502 -0.03134899 -4.23695299 
031635954 -4.41241074 -42.46292373 17.37602169 155.57579377 -45.99817521 53.78345315 -0.04226641 -3.31857479 
032301953 -4.20934853 -41.37819096 17.62963028 155.10683542 -46.03713914 52.69782833 -0.01951474 -3.78499452 
032967952 -4.24637418 -40.93364230 17.89617481 154.84605336 -46.92195201 72.53391150 -0.04383447 -4.31961298 
033633951 -4.16325774 -39.08842644 18.12964609 154.82749519 -44.45539562 56.29342746 0.00000000 -4.39342583 
034299950 -4.23804125 -37.69111713 18.36283017 155.19621066 -48.17949640 46.63330219 -0.07350764 -4.16780358 
034965949 -4.07939286 -37.67852747 18.61009078 155.47312221 -46.04831571 57.94625983 -0.03394398 -4.42609141 
035631948 -4.17904947 -36.41671962 18.74015454 156.64506917 -46.45925763 42.83330205 -0.02747527 -5.09576235 
036297947 -4.08565211 -34.71533026 18.76142853 158.50370681 -45.72582187 65.59059660 -0.05452612 -4.89678608 
036963946 -3.96789119 -34.54396593 18.75538583 160.47091338 -43.53358998 55.65317639 -0.00369636 -5.12751756 
037629945 -4.08914284 -35.11201772 18.76138975 162.49068208 -44.56044455 56.92432810 -0.04385824 -5.56086304 
038295944 -3.98411437 -33.75184152 18.77170849 164.58859721 -45.30902970 59.08747631 -0.00753034 -5.86086081 
038961943 -3.87464984 -33.06959642 18.75902738 166.45332154 -42.57011100 53.18000027 0.00000000 -5.51745963 
039627942 -3.97560987 -32.28545538 18.54149564 166.90321921 -43.42872584 53.90462870 -0.02214100 -6.15914329 
040293941 -3.81606112 -31.30203197 18.31226239 167.21241517 -43.27913741 59.64060413 0.00000000 -5.89505689 
040959940 -3.82083391 -31.63840896 18.07055182 167.15811986 -42.24648716 64.97603461 -0.06080525 -6.45224340 
041625939 -3.73133132 -31.22495887 17.81767062 167.19220765 -42.24707983 61.08194652 0.00000000 -6.25572186 
042291938 -3.80200417 -31.03539398 17.58299881 167.10363503 -43.33909609 53.93911093 0.00000000 -6.35789450 
042957937 -3.82216002 -30.48206292 17.36727696 166.78113672 -42.73612195 56.50954363 0.00000000 -6.57853149 
043623936 -3.79904114 -29.50514275 17.13343107 166.33980600 -41.82150679 56.93259814 0.00000000 -6.78244585 
044289935 -3.70735585 -28.96324438 16.92868644 165.75784380 -41.66184816 60.81128636 -0.03523975 -6.88939716 
044955934 -3.63554519 -29.57379413 16.72992907 165.20939539 -41.71762695 54.31781398 0.00000000 -7.00218674 
045621933 -3.57664523 -28.74597223 16.54806256 164.35999577 -42.54546961 56.81819733 0.00000000 -7.14631861 
046287932 -3.56271299 -28.49689052 16.39475105 163.44739103 -41.68534092 62.85193852 0.00000000 -7.17747245 
046953931 -3.43490324 -28.32804444 16.25788526 162.44087470 -41.51224764 65.91703610 0.00000000 -7.26993846 
047619930 -3.55973771 -28.14806259 16.14523512 161.42069689 -41.22662569 69.04894608 0.00000000 -8.06969726 
048285929 -3.50021603 -27.24322348 16.05389509 160.39150472 -41.09890282 64.14177804 0.00000000 -7.73508022 
048951928 -3.37426855 -28.55267913 15.98195844 159.23009693 -41.01747874 66.16109181 0.00000000 -7.72187280 
049617927 -3.37172570 -27.75111791 15.94231828 158.23363772 -41.51002851 58.89547561 0.00000000 -7.99464817 
050283926 -3.38891867 -25.14304573 15.92394935 157.06240285 -41.11604833 64.24576334 0.00000000 -7.79706268 
050949925 -3.34473722 -27.36727537 15.94850597 156.00374164 -40.63548619 68.37374338 0.00000000 -8.02431847 
051615924 -3.22651361 -26.90789232 15.97231153 154.95557317 -40.48892623 62.99248098 0.00000000 -8.03245119 
052281923 -3.29807180 -25.91081726 16.03699280 154.05996622 -39.95177857 62.94089139 0.00000000 -7.60180634 
052947922 -3.32342210 -26.23838360 16.11927649 153.18418236 -40.24487468 67.37272996 0.00000000 -8.21648578 
053613921 -3.26717351 -25.12713625 16.21766262 153.09380843 -40.27358053 67.63349778 0.00000000 -7.62397326 
054279920 -3.23517889 -26.12566581 16.32522259 152.40363639 -39.46946624 65.12785794 0.00000000 -8.24858168 
054945919 -3.19537688 -25.01061765 16.44693637 151.91396444 -39.39932721 65.52219952 0.00000000 -7.78843380 
055611918 -3.18470247 -25.29367697 16.58665771 151.59383906 -40.49272948 71.93514288 0.00000000 -8.35379121 
056277917 -3.21327734 -25.36588940 16.73379623 151.27485540 -40.12104728 72.08188722 0.00000000 -8.16597262 
056943916 -3.10446247 -25.73866393 16.88728874 151.14552192 -39.93675206 74.79398991 0.00000000 -8.35931032 
057609915 -3.24276117 -24.98569565 17.04502014 151.12682205 -39.46448717 74.43701420 0.00000000 -8.21930632 
058275914 -3.21355925 -24.85760098 17.19105909 151.27610492 -39.01718563 69.34038573 -0.00067886 -8.51470264 
058941913 -3.13083890 -25.71587719 17.34327140 151.50584971 -39.80338249 72.10203011 0.00000000 -8.57767022 
059607912 -3.14940087 -24.85060315 17.50675566 151.89763497 -40.36140315 70.10146791 0.00000000 -8.47707460 
060273911 -3.14038913 -25.16851466 17.65831968 152.27224749 -39.76771315 78.62247534 0.00000000 -8.44593132 
060939910 -3.13498600 -24.96280869 17.81609757 152.83921179 -39.24554176 71.52930249 0.00000000 -8.57584769 
061605909 -3.05435999 -25.15693001 17.95377651 153.50563067 -40.12393085 71.23891545 0.00000000 -8.38239108 
062271908 -3.09481388 -24.96457146 18.10073008 154.17723310 -38.79198700 73.19394583 0.00000000 -9.18069340 
062937907 -3.09101954 -24.54779864 18.24278269 155.04221309 -39.82546013 71.96442005 0.00000000 -8.68946315 
063603906 -3.09996906 -24.94720119 18.38085169 155.88951956 -39.25487142 74.61936192 0.00000000 -9.03473466 
064269905 -2.91890829 -24.03556320 18.49028083 156.77722012 -39.26256332 74.14230493 0.00000000 -8.86495312 
064935904 -3.11734311 -23.60051917 18.48222789 156.82556798 -38.64003499 74.90894081 -0.00125751 -8.61172862 
065601903 -3.13842816 -23.94735722 18.43061496 156.93887780 -39.51091889 72.38486954 -0.04759407 -9.36049402 
066267902 -3.01089724 -25.28559254 18.39504152 157.05305904 -39.59658846 77.47280718 0.00000000 -9.41922540 
066933901 -3.09739678 -25.34485576 18.24238273 157.52849211 -39.48602438 70.74901341 0.00000000 -9.84937860 
067599900 -3.07905640 -24.34873012 18.08141748 158.23548922 -39.58172259 75.36108639 -0.01108144 -9.73152173 
068265899 -3.04901308 -23.79745464 17.90286865 158.84292229 -39.46829914 80.17983408 0.00000000 -9.75332717 
068931898 -2.99412854 -24.68008040 17.72654126 159.30384425 -39.22756223 75.72128399 0.00000000 -10.34268965 
069597897 -3.12275750 -24.77354121 17.57351454 159.78983557 -40.14883708 80.05135910 -0.07757579 -9.88064013 
070263896 -3.14015303 -24.32170090 17.39650667 160.06206847 -38.95186595 82.05269263 0.00000000 -9.90476634 
070929895 -3.06449184 -24.22835331 17.23157000 160.35951028 -38.95182194 77.77255250 0.00000000 -9.91933570 
071595894 -3.16671860 -24.94510645 17.06682717 160.49455454 -39.13417056 79.16290428 -0.03286779 -9.97531415 
072261893 -3.09078607 -24.81755456 16.90329814 160.61188900 -39.16848327 78.83931736 -0.05483314 -9.94896106 
072927892 -3.14323495 -24.69061407 16.73475340 160.67082184 -39.44945296 73.78459631 -0.07861652 -10.32047391 
073593891 -3.15880132 -25.59015478 16.58712527 160.63501714 -39.60791000 77.11282913 -0.07079846 -10.50291475 
074259890 -3.15160903 -24.79612399 16.46061067 160.49032484 -39.29968550 80.81060945 -0.02800598 -10.68916592 
074925889 -3.29483761 -24.94408882 16.32119103 160.26626120 -39.50814627 76.04554370 -0.10196393 -11.05066147 
075591888 -3.25286539 -25.33236202 16.20343036 159.90331943 -39.27494040 79.18558353 -0.07326069 -10.91940519 
076257887 -3.14310644 -25.88027008 16.09829939 159.55736193 -39.24911289 79.70398013 -0.03756804 -11.26946146 
076923886 -3.19856314 -26.80460519 15.99454674 159.16784690 -39.32392762 77.13777078 -0.07923113 -11.07081915 
077589885 -3.22722159 -25.81828290 15.90366315 158.74178841 -39.07183249 73.63690199 -0.08288925 -11.09985365 
078255884 -3.29694730 -26.30933659 15.85495594 158.16960912 -39.60165116 79.85178119 -0.11048992 -11.66112979 
078921883 -3.21360889 -25.74113512 15.79630253 157.64854041 -39.87572465 76.66302991 -0.15338551 -11.67619434 
079587882 -3.22641086 -26.11914814 15.75994723 157.06411935 -39.65296526 80.36530976 -0.15260012 -11.87891818 
080253881 -3.25570391 -26.98103294 15.74016671 156.49498403 -38.96926136 82.21820804 -0.17979087 -11.88294333 
080919880 -3.42116083 -27.49022035 15.73272335 155.90237879 -38.85815390 81.98103875 -0.16171898 -12.33134310 
081585879 -3.34833050 -27.06736992 15.73401903 155.42183556 -39.35574394 76.38392585 -0.21846941 -12.42851858 
082251878 -3.37722207 -27.59328473 15.76126010 154.89020011 -39.42515848 76.09870879 -0.15933191 -12.34911635 
082917877 -3.30983085 -27.21483980 15.80753603 154.44806189 -39.13807058 77.62791333 -0.16136796 -12.69580374 
083583876 -3.44284207 -27.88149184 15.85281821 153.95552196 -38.84978203 78.75033221 -0.18789456 -12.62781967 
084249875 -3.36320090 -27.43709633 15.92049594 153.54534396 -38.77924913 78.80510910 -0.21429187 -12.78174089 
084915874 -3.30562729 -27.65317399 15.98510374 153.21660885 -38.58953798 75.58046198 -0.17899360 -12.87082836 
085581873 -3.38108575 -29.09230226 16.08508621 152.94500156 -39.08282103 76.74101944 -0.24286455 -13.44776594 
086247872 -3.17387404 -29.44006586 16.17226004 152.82670494 -39.48839378 73.05514994 -0.10070460 -13.62531386 
086913871 -3.33198972 -28.90503931 16.29641227 152.66042652 -39.42415652 81.43119095 -0.23521334 -13.49616648 
087579870 -3.32435262 -30.00891603 16.38295771 152.57866941 -39.10934506 73.94904252 -0.19044956 -13.78312187 
088245869 -3.24239343 -29.67530228 16.51514473 152.59825264 -39.47580873 73.16376395 -0.19388355 -13.85459077 
088911868 -3.19900921 -29.71477422 16.63526200 152.65894612 -38.81700275 76.77418397 -0.17970490 -13.64308504 
089577867 -3.21064179 -30.23488642 16.75726294 152.81274074 -38.92561736 74.78952237 -0.16252580 -13.88701608 
090243866 -3.19030947 -30.04936846 16.90288915 153.08485829 -38.93281231 77.77303522 -0.15696640 -14.03372522 
090909865 -3.12826097 -31.25439002 17.03882885 153.42598671 -39.04723468 79.31201808 -0.13616337 -14.22576636 
091575864 -3.26541045 -31.23331006 17.16235032 153.81447405 -38.91843573 77.44161987 -0.16491838 -14.42907280 
092241863 -3.26708947 -32.08640008 17.24263048 154.08477854 -39.27390548 77.25565708 -0.14288750 -14.95264246 
092907862 -3.21632968 -31.17925715 17.29932360 154.26362467 -38.85728376 73.67871103 -0.19017579 -13.96743784 
093573861 -3.15322634 -31.48901337 17.32126200 154.29492536 -38.76343575 72.67956714 -0.16288178 -14.32945146 
094239860 -3.23434385 -32.39173487 17.31729664 154.25100806 -38.83482333 76.50419896 -0.17339251 -14.28358555 
094905859 -3.10321847 -31.74988571 17.31445257 154.19830291 -38.44626042 79.33185481 -0.14055193 -14.23930552 
095571858 -3.20471184 -32.84989150 17.29651296 154.11323970 -38.27366387 72.86389533 -0.14877582 -14.96077852 
096237857 -3.09517794 -32.04989736 17.30876385 154.12061445 -38.31317477 78.37367225 -0.16875967 -14.94601259 
096903856 -3.12987091 -32.98175618 17.29714124 154.09868234 -38.55490577 73.69188746 -0.15815445 -14.97339189 
097569855 -3.02914644 -34.02215872 17.29961540 154.07185919 -38.65211045 72.92862149 -0.12582867 -15.65808905 
098235854 -2.97379059 -34.40151490 17.29963081 154.05650174 -38.12742600 71.87723892 -0.12882485 -15.31737501 
098901853 -3.13398377 -33.73035086 17.31825237 154.03892406 -37.80743936 77.07329147 -0.14113178 -15.39950642 
099567852 -3.00836423 -33.77515585 17.30018139 154.04898912 -38.00417291 73.82949922 -0.15696897 -15.42639344 
100233851 -2.99841790 -33.72279575 17.30703310 154.04973058 -37.79655765 73.37987677 -0.15104603 -15.88953583 
100899850 -3.08391763 -34.03483851 17.32067033 154.10185677 -38.59975530 73.32644621 -0.17325697 -15.63716024 
101565849 -3.02828361 -33.70429010 17.32335867 154.10310985 -37.37033180 75.12609903 -0.15241424 -15.94893327 
102231848 -3.06646780 -34.24987944 17.32658896 154.16056224 -37.89672200 74.61155695 -0.22058424 -15.42129651 
102897847 -3.01872235 -34.06743996 17.27743422 154.34175826 -37.31630708 72.46704826 -0.10487242 -15.99169633 
103563846 -3.12019682 -33.61787020 17.25099855 154.60408332 -37.27740925 75.19756797 -0.19469953 -16.00231762 
104229845 -2.99820952 -32.70023143 17.13931547 155.01699990 -37.95953337 73.03776647 -0.14663065 -15.35579602 
104895844 -3.09416203 -33.64728907 17.05440800 155.29505126 -37.43108679 71.64416963 -0.21737616 -15.66247439 
105561843 -3.05196964 -33.14187709 16.96285798 155.52409988 -36.40058954 71.79276135 -0.20883578 -15.75032960 
106227842 -3.03164985 -32.95896337 16.89587064 155.78892942 -37.20764577 72.09117634 -0.19314522 -15.93647233 
106893841 -3.15754215 -33.22956592 16.81518189 156.01159561 -37.21068178 70.82149025 -0.23053395 -15.90622043 
107559840 -2.97108189 -33.04268080 16.75621906 156.13749082 -37.33780036 72.64523253 -0.22269261 -16.55645155 
108225839 -3.15018726 -33.08006167 16.69042169 156.26322768 -37.15844720 71.18432166 -0.26807754 -16.25046383 
108891838 -2.99147575 -32.10274271 16.64295639 156.26455538 -37.08375420 74.71229822 -0.24745677 -15.99905825 
109557837 -3.04974944 -31.94024695 16.60439858 156.35122788 -37.30365987 75.36287295 -0.25812999 -16.07187448 
110223836 -3.17717333 -32.08072973 16.54784200 156.35070164 -37.09469942 73.69629699 -0.34615313 -16.88126038 
110889835 -3.06712215 -31.65825040 16.52683969 156.24926042 -36.35462394 73.86356109 -0.28770261 -16.23330417 
111555834 -3.03604512 -32.04028346 16.50100381 156.22433150 -36.38947800 71.75456948 -0.27881086 -16.28921571 
112221833 -3.16922653 -32.29602279 16.49748833 156.18892301 -36.63695422 75.85245200 -0.32927197 -16.51244867 
112887832 -3.17708459 -31.32522315 16.48738870 156.06004312 -36.79067232 74.93627212 -0.31991805 -16.68244595 
113553831 -3.10008420 -31.85124712 16.49302645 156.06833929 -36.58152352 73.17078037 -0.34775047 -16.64621754 
114219830 -3.25171628 -30.96220378 16.47766396 155.91990083 -35.68645694 66.31196960 -0.32818606 -16.51907410 
114885829 -3.30940802 -30.68941253 16.52295752 155.87306147 -36.03559679 70.85329146 -0.39317772 -16.79024209 
115551828 -3.30898830 -31.05823611 16.56287543 155.86617180 -36.89423465 74.26853734 -0.40545800 -16.68606380 
116217827 -3.43455000 -31.49124444 16.59834262 155.79374582 -36.20942820 73.11840403 -0.45835168 -17.14230135 
116883826 -3.33348468 -31.48167635 16.65388402 155.77922870 -36.36215641 70.99593242 -0.50759126 -17.01377489 
117549825 -3.34600971 -30.09124782 16.71654832 155.78982355 -35.99338238 74.15155181 -0.47167365 -16.99651831 
118215824 -3.34197683 -31.47853693 16.78183676 155.74776503 -35.75560289 77.32480589 -0.47565026 -17.26386935 
118881823 -3.19470904 -29.99093742 16.85624001 155.90400440 -36.16267514 76.38694012 -0.46679300 -16.92438769 
119547822 -3.31139297 -31.17747191 16.94613060 156.01048361 -36.31533911 77.86110035 -0.49149435 -17.59801859 
120213821 -3.48179147 -31.00368401 17.02174143 156.09417857 -35.75061971 75.25008442 -0.56698257 -17.64456965 
